/c4 X,/c4 Y,/s3 X,/s3 Y,/s2 X,/s2 Y,/s1 X,/s1 Y,/s0 X,/s0 Y,/b3 X,/b3 Y,/a3 X,/a3 Y,/b2 X,/b2 Y,/a2 X,/a2 Y,/b1 X,/b1 Y,/a1 X,/a1 Y,/b0 X,/b0 Y,/a0 X,/a0 Y,/c0 X,/c0 Y
0,5.339800133486519e-08,0,1.188901205363323e-07,0,1.188901205245717e-07,0,1.188901204096656e-07,0,1.18890126211834e-07,0,0,0,0,0,0,0,0,0,0,0,0,0,0,0,0,0,0
8.000000000000001e-11,5.339800129086841e-08,8.000000000000001e-11,1.18890253014026e-07,8.000000000000001e-11,1.188902530041082e-07,8.000000000000001e-11,1.18890252943324e-07,8.000000000000001e-11,1.188902588733938e-07,8.000000000000001e-11,0,8.000000000000001e-11,0,8.000000000000001e-11,0,8.000000000000001e-11,0,8.000000000000001e-11,0,8.000000000000001e-11,0,8.000000000000001e-11,0,8.000000000000001e-11,0,8.000000000000001e-11,0
2.4e-10,5.339800129030651e-08,2.4e-10,1.188902595933012e-07,2.4e-10,1.188902595818414e-07,2.4e-10,1.188902595210465e-07,2.4e-10,1.188902653025138e-07,2.4e-10,0,2.4e-10,0,2.4e-10,0,2.4e-10,0,2.4e-10,0,2.4e-10,0,2.4e-10,0,2.4e-10,0,2.4e-10,0
5.599999999999999e-10,5.339800128962366e-08,5.599999999999999e-10,1.188902599114456e-07,5.599999999999999e-10,1.188902599030384e-07,5.599999999999999e-10,1.188902598490574e-07,5.599999999999999e-10,1.188902656126777e-07,5.599999999999999e-10,0,5.599999999999999e-10,0,5.599999999999999e-10,0,5.599999999999999e-10,0,5.599999999999999e-10,0,5.599999999999999e-10,0,5.599999999999999e-10,0,5.599999999999999e-10,0,5.599999999999999e-10,0
1.2e-09,5.339800129092825e-08,1.2e-09,1.188902594967581e-07,1.2e-09,1.188902594819223e-07,1.2e-09,1.188902594185377e-07,1.2e-09,1.188902652010329e-07,1.2e-09,0,1.2e-09,0,1.2e-09,0,1.2e-09,0,1.2e-09,0,1.2e-09,0,1.2e-09,0,1.2e-09,0,1.2e-09,0
2.48e-09,5.339800128908641e-08,2.48e-09,1.188902596682363e-07,2.48e-09,1.18890259661423e-07,2.48e-09,1.188902596091259e-07,2.48e-09,1.1889026537204e-07,2.48e-09,0,2.48e-09,0,2.48e-09,0,2.48e-09,0,2.48e-09,0,2.48e-09,0,2.48e-09,0,2.48e-09,0,2.48e-09,0
4.08e-09,5.339800129096338e-08,4.08e-09,1.188902591520302e-07,4.08e-09,1.188902591372971e-07,4.08e-09,1.188902590735701e-07,4.08e-09,1.188902648563086e-07,4.08e-09,0,4.08e-09,0,4.08e-09,0,4.08e-09,0,4.08e-09,0,4.08e-09,0,4.08e-09,0,4.08e-09,0,4.08e-09,0
5.68e-09,5.339800128900474e-08,5.68e-09,1.188902592767668e-07,5.68e-09,1.188902592694548e-07,5.68e-09,1.18890259217421e-07,5.68e-09,1.188902649800085e-07,5.68e-09,0,5.68e-09,0,5.68e-09,0,5.68e-09,0,5.68e-09,0,5.68e-09,0,5.68e-09,0,5.68e-09,0,5.68e-09,0
7.280000000000001e-09,5.339800129102602e-08,7.280000000000001e-09,1.188902587687242e-07,7.280000000000001e-09,1.188902587542182e-07,7.280000000000001e-09,1.188902586900376e-07,7.280000000000001e-09,1.188902644734889e-07,7.280000000000001e-09,0,7.280000000000001e-09,0,7.280000000000001e-09,0,7.280000000000001e-09,0,7.280000000000001e-09,0,7.280000000000001e-09,0,7.280000000000001e-09,0,7.280000000000001e-09,0,7.280000000000001e-09,0
8.880000000000001e-09,5.339800128893182e-08,8.880000000000001e-09,1.188902588857015e-07,8.880000000000001e-09,1.188902588782438e-07,8.880000000000001e-09,1.1889025882675e-07,8.880000000000001e-09,1.188902645890724e-07,8.880000000000001e-09,0,8.880000000000001e-09,0,8.880000000000001e-09,0,8.880000000000001e-09,0,8.880000000000001e-09,0,8.880000000000001e-09,0,8.880000000000001e-09,0,8.880000000000001e-09,0,8.880000000000001e-09,0
1e-08,5.339800129104314e-08,1e-08,1.18890258445745e-07,1e-08,1.1889025843061e-07,1e-08,1.18890258367029e-07,1e-08,1.188902641494889e-07,1e-08,0,1e-08,0,1e-08,0,1e-08,0,1e-08,0,1e-08,0,1e-08,0,1e-08,0,1e-08,0
1.16e-08,5.339800128991689e-08,1.16e-08,1.188902584035027e-07,1.16e-08,1.188902583925624e-07,1.16e-08,1.188902583345283e-07,1.16e-08,1.188902641073225e-07,1.16e-08,0,1.16e-08,0,1.16e-08,0,1.16e-08,0,1.16e-08,0,1.16e-08,0,1.16e-08,0,1.16e-08,0,1.16e-08,0
1.32e-08,5.339800128997699e-08,1.32e-08,1.188902582114969e-07,1.32e-08,1.188902582009512e-07,1.32e-08,1.188902581436665e-07,1.32e-08,1.188902639155069e-07,1.32e-08,0,1.32e-08,0,1.32e-08,0,1.32e-08,0,1.32e-08,0,1.32e-08,0,1.32e-08,0,1.32e-08,0,1.32e-08,0
1.48e-08,5.33980012899791e-08,1.48e-08,1.188902580192053e-07,1.48e-08,1.188902580077861e-07,1.48e-08,1.188902579490325e-07,1.48e-08,1.188902637234389e-07,1.48e-08,0,1.48e-08,0,1.48e-08,0,1.48e-08,0,1.48e-08,0,1.48e-08,0,1.48e-08,0,1.48e-08,0,1.48e-08,0
1.5e-08,5.339800128964479e-08,1.5e-08,1.188902579953899e-07,1.5e-08,1.188902579829702e-07,1.5e-08,1.188902579271352e-07,1.5e-08,1.188902637008947e-07,1.5e-08,0,1.5e-08,0,1.5e-08,0,1.5e-08,0,1.5e-08,0,1.5e-08,0,1.5e-08,0,1.5e-08,0,1.5e-08,0
1.5000001e-08,5.340733158686413e-08,1.5000001e-08,5.610271920988497e-07,1.5000001e-08,1.253365307856837e-07,1.5000001e-08,5.179777221366364e-07,1.5000001e-08,1.979315882159165e-07,1.5000001e-08,1,1.5000001e-08,0,1.5000001e-08,0,1.5000001e-08,0,1.5000001e-08,1,1.5000001e-08,0,1.5000001e-08,0,1.5000001e-08,1,1.5000001e-08,0
1.5000003e-08,5.371447097799882e-08,1.5000003e-08,2.255681009868603e-06,1.5000003e-08,1.801736882030819e-07,1.5000003e-08,2.010671012941832e-06,1.5000003e-08,6.258747956750254e-07,1.5000003e-08,1,1.5000003e-08,0,1.5000003e-08,0,1.5000003e-08,0,1.5000003e-08,1,1.5000003e-08,0,1.5000003e-08,0,1.5000003e-08,1,1.5000003e-08,0
1.5000007e-08,5.545575427871473e-08,1.5000007e-08,6.289135876077509e-06,1.5000007e-08,3.645169736905849e-07,1.5000007e-08,5.532052956629091e-06,1.5000007e-08,1.623504216600193e-06,1.5000007e-08,1,1.5000007e-08,0,1.5000007e-08,0,1.5000007e-08,0,1.5000007e-08,1,1.5000007e-08,0,1.5000007e-08,0,1.5000007e-08,1,1.5000007e-08,0
1.5000015e-08,6.697245044573043e-08,1.5000015e-08,1.531529329846717e-05,1.5000015e-08,9.289669210593903e-07,1.5000015e-08,1.33700302582627e-05,1.5000015e-08,3.887358510533458e-06,1.5000015e-08,1,1.5000015e-08,0,1.5000015e-08,0,1.5000015e-08,0,1.5000015e-08,1,1.5000015e-08,0,1.5000015e-08,0,1.5000015e-08,1,1.5000015e-08,0
1.5000019e-08,7.611829659936378e-08,1.5000019e-08,2.231604528874601e-05,1.5000019e-08,1.221236949635079e-06,1.5000019e-08,1.72415265601266e-05,1.5000019e-08,5.030228475473363e-06,1.5000019e-08,1,1.5000019e-08,0,1.5000019e-08,0,1.5000019e-08,0,1.5000019e-08,1,1.5000019e-08,0,1.5000019e-08,0,1.5000019e-08,1,1.5000019e-08,0
1.500002700000001e-08,9.433364751147073e-08,1.500002700000001e-08,3.299577008149756e-05,1.500002700000001e-08,1.795261250128493e-06,1.500002700000001e-08,2.501974368472006e-05,1.500002700000001e-08,7.324598311939289e-06,1.500002700000001e-08,1,1.500002700000001e-08,0,1.500002700000001e-08,0,1.500002700000001e-08,0,1.500002700000001e-08,1,1.500002700000001e-08,0,1.500002700000001e-08,0,1.500002700000001e-08,1,1.500002700000001e-08,0
1.500004300000001e-08,1.286642583391942e-07,1.500004300000001e-08,5.278084076367693e-05,1.500004300000001e-08,2.963384254632928e-06,1.500004300000001e-08,4.561249433597374e-05,1.500004300000001e-08,1.200134055602086e-05,1.500004300000001e-08,1,1.500004300000001e-08,0,1.500004300000001e-08,0,1.500004300000001e-08,0,1.500004300000001e-08,1,1.500004300000001e-08,0,1.500004300000001e-08,0,1.500004300000001e-08,1,1.500004300000001e-08,0
1.500007500000002e-08,1.978973929367183e-07,1.500007500000002e-08,9.433887859733364e-05,1.500007500000002e-08,5.31647433440811e-06,1.500007500000002e-08,8.1254918532704e-05,1.500007500000002e-08,2.17301418767819e-05,1.500007500000002e-08,1,1.500007500000002e-08,0,1.500007500000002e-08,0,1.500007500000002e-08,0,1.500007500000002e-08,1,1.500007500000002e-08,0,1.500007500000002e-08,0,1.500007500000002e-08,1,1.500007500000002e-08,0
1.50001255580767e-08,3.240234562725804e-07,1.50001255580767e-08,0.0001593526894502765,1.50001255580767e-08,9.59191152062239e-06,1.50001255580767e-08,0.0001376911149550072,1.50001255580767e-08,4.342194912150253e-05,1.50001255580767e-08,1,1.50001255580767e-08,0,1.50001255580767e-08,0,1.50001255580767e-08,0,1.50001255580767e-08,1,1.50001255580767e-08,0,1.50001255580767e-08,0,1.50001255580767e-08,1,1.50001255580767e-08,0
1.500016805348217e-08,4.374697179347318e-07,1.500016805348217e-08,0.0002156386870557569,1.500016805348217e-08,1.335884227178258e-05,1.500016805348217e-08,0.0001858074269544987,1.500016805348217e-08,5.934641939999094e-05,1.500016805348217e-08,1,1.500016805348217e-08,0,1.500016805348217e-08,0,1.500016805348217e-08,0,1.500016805348217e-08,1,1.500016805348217e-08,0,1.500016805348217e-08,0,1.500016805348217e-08,1,1.500016805348217e-08,0
1.500017751525054e-08,4.890201749123258e-07,1.500017751525054e-08,0.000231336174291861,1.500017751525054e-08,1.551972851530965e-05,1.500017751525054e-08,0.0002000291218395196,1.500017751525054e-08,6.36100275661332e-05,1.500017751525054e-08,1,1.500017751525054e-08,0,1.500017751525054e-08,0,1.500017751525054e-08,0,1.500017751525054e-08,1,1.500017751525054e-08,0,1.500017751525054e-08,0,1.500017751525054e-08,1,1.500017751525054e-08,0
1.500019643878729e-08,5.927078030658661e-07,1.500019643878729e-08,0.0002586246370583294,1.500019643878729e-08,1.797260174136451e-05,1.500019643878729e-08,0.0002234331687914738,1.500019643878729e-08,7.10797390842902e-05,1.500019643878729e-08,1,1.500019643878729e-08,0,1.500019643878729e-08,0,1.500019643878729e-08,0,1.500019643878729e-08,1,1.500019643878729e-08,0,1.500019643878729e-08,0,1.500019643878729e-08,1,1.500019643878729e-08,0
1.500020112182392e-08,6.000104385979114e-07,1.500020112182392e-08,0.0002636902169364242,1.500020112182392e-08,1.827568526466796e-05,1.500020112182392e-08,0.0002279379912051947,1.500020112182392e-08,7.269956364749469e-05,1.500020112182392e-08,1,1.500020112182392e-08,0,1.500020112182392e-08,0,1.500020112182392e-08,0,1.500020112182392e-08,1,1.500020112182392e-08,0,1.500020112182392e-08,0,1.500020112182392e-08,1,1.500020112182392e-08,0
1.500021048789717e-08,6.293153246787434e-07,1.500021048789717e-08,0.0002770078191630945,1.500021048789717e-08,1.963189635046389e-05,1.500021048789717e-08,0.0002394137055175357,1.500021048789717e-08,7.648463845986841e-05,1.500021048789717e-08,1,1.500021048789717e-08,0,1.500021048789717e-08,0,1.500021048789717e-08,0,1.500021048789717e-08,1,1.500021048789717e-08,0,1.500021048789717e-08,0,1.500021048789717e-08,1,1.500021048789717e-08,0
1.5000212773155e-08,6.4168362908174e-07,1.5000212773155e-08,0.0002797350539272608,1.5000212773155e-08,1.992082823729314e-05,1.5000212773155e-08,0.0002418258506773535,1.5000212773155e-08,7.730988777407027e-05,1.5000212773155e-08,1,1.5000212773155e-08,0,1.5000212773155e-08,0,1.5000212773155e-08,0,1.5000212773155e-08,1,1.5000212773155e-08,0,1.5000212773155e-08,0,1.5000212773155e-08,1,1.5000212773155e-08,0
1.500021391578392e-08,6.473420817808075e-07,1.500021391578392e-08,0.0002813472980383291,1.500021391578392e-08,2.009514049372733e-05,1.500021391578392e-08,0.0002432043676818059,1.500021391578392e-08,7.777864164720339e-05,1.500021391578392e-08,1,1.500021391578392e-08,0,1.500021391578392e-08,0,1.500021391578392e-08,0,1.500021391578392e-08,1,1.500021391578392e-08,0,1.500021391578392e-08,0,1.500021391578392e-08,1,1.500021391578392e-08,0
1.500021620104174e-08,6.584961932318891e-07,1.500021620104174e-08,0.0002844682308894481,1.500021620104174e-08,2.043192641868814e-05,1.500021620104174e-08,0.0002459074574847234,1.500021620104174e-08,7.868807795054476e-05,1.500021620104174e-08,1,1.500021620104174e-08,0,1.500021620104174e-08,0,1.500021620104174e-08,0,1.500021620104174e-08,1,1.500021620104174e-08,0,1.500021620104174e-08,0,1.500021620104174e-08,1,1.500021620104174e-08,0
1.500021867309061e-08,6.704957328715938e-07,1.500021867309061e-08,0.0002878265766760692,1.500021867309061e-08,2.071782677246438e-05,1.500021867309061e-08,0.0002488153501520069,1.500021867309061e-08,7.967487038621789e-05,1.500021867309061e-08,1,1.500021867309061e-08,0,1.500021867309061e-08,0,1.500021867309061e-08,0,1.500021867309061e-08,1,1.500021867309061e-08,0,1.500021867309061e-08,0,1.500021867309061e-08,1,1.500021867309061e-08,0
1.500021960106553e-08,6.748066320034804e-07,1.500021960106553e-08,0.0002890924003410411,1.500021960106553e-08,2.079729085816613e-05,1.500021960106553e-08,0.000249912004485779,1.500021960106553e-08,8.004686492135905e-05,1.500021960106553e-08,1,1.500021960106553e-08,0,1.500021960106553e-08,0,1.500021960106553e-08,0,1.500021960106553e-08,1,1.500021960106553e-08,0,1.500021960106553e-08,0,1.500021960106553e-08,1,1.500021960106553e-08,0
1.5000220065053e-08,6.768732262573115e-07,1.5000220065053e-08,0.0002897248376647148,1.5000220065053e-08,2.083066320267793e-05,1.5000220065053e-08,0.0002504596650085461,1.5000220065053e-08,8.023318788023032e-05,1.5000220065053e-08,1,1.5000220065053e-08,0,1.5000220065053e-08,0,1.5000220065053e-08,0,1.5000220065053e-08,1,1.5000220065053e-08,0,1.5000220065053e-08,0,1.5000220065053e-08,1,1.5000220065053e-08,0
1.500022099302792e-08,6.807426042178539e-07,1.500022099302792e-08,0.0002909899125417667,1.500022099302792e-08,2.088873459013445e-05,1.500022099302792e-08,0.000251555321935893,1.500022099302792e-08,8.06064060701158e-05,1.500022099302792e-08,1,1.500022099302792e-08,0,1.500022099302792e-08,0,1.500022099302792e-08,0,1.500022099302792e-08,1,1.500022099302792e-08,0,1.500022099302792e-08,0,1.500022099302792e-08,1,1.500022099302792e-08,0
1.500022284897777e-08,6.871940866996081e-07,1.500022284897777e-08,0.0002935216490026361,1.500022284897777e-08,2.098534260200791e-05,1.500022284897777e-08,0.000253748231812742,1.500022284897777e-08,8.135533912613619e-05,1.500022284897777e-08,1,1.500022284897777e-08,0,1.500022284897777e-08,0,1.500022284897777e-08,0,1.500022284897777e-08,1,1.500022284897777e-08,0,1.500022284897777e-08,0,1.500022284897777e-08,1,1.500022284897777e-08,0
1.500022656087748e-08,6.951676290326416e-07,1.500022656087748e-08,0.000298593513805396,1.500022656087748e-08,2.115883460246842e-05,1.500022656087748e-08,0.0002581417106026955,1.500022656087748e-08,8.286422394366702e-05,1.500022656087748e-08,1,1.500022656087748e-08,0,1.500022656087748e-08,0,1.500022656087748e-08,0,1.500022656087748e-08,1,1.500022656087748e-08,0,1.500022656087748e-08,0,1.500022656087748e-08,1,1.500022656087748e-08,0
1.500023398467689e-08,7.010493116460718e-07,1.500023398467689e-08,0.0003087851484028387,1.500023398467689e-08,2.151857906842342e-05,1.500023398467689e-08,0.0002669696520822882,1.500023398467689e-08,8.593338972135227e-05,1.500023398467689e-08,1,1.500023398467689e-08,0,1.500023398467689e-08,0,1.500023398467689e-08,0,1.500023398467689e-08,1,1.500023398467689e-08,0,1.500023398467689e-08,0,1.500023398467689e-08,1,1.500023398467689e-08,0
1.50002488322757e-08,7.076932284654008e-07,1.50002488322757e-08,0.0003294725939871133,1.50002488322757e-08,2.227405429786991e-05,1.50002488322757e-08,0.0002848705421057708,1.50002488322757e-08,9.237500779775713e-05,1.50002488322757e-08,1,1.50002488322757e-08,0,1.50002488322757e-08,0,1.50002488322757e-08,0,1.50002488322757e-08,1,1.50002488322757e-08,0,1.50002488322757e-08,0,1.50002488322757e-08,1,1.50002488322757e-08,0
1.500026790455637e-08,7.191438791985501e-07,1.500026790455637e-08,0.0003573215137318651,1.500026790455637e-08,2.329166895700812e-05,1.500026790455637e-08,0.0003088398272989636,1.500026790455637e-08,0.0001020653505595562,1.500026790455637e-08,1,1.500026790455637e-08,0,1.500026790455637e-08,0,1.500026790455637e-08,0,1.500026790455637e-08,1,1.500026790455637e-08,0,1.500026790455637e-08,0,1.500026790455637e-08,1,1.500026790455637e-08,0
1.5000271526722e-08,7.213245875834562e-07,1.5000271526722e-08,0.0003628590211883317,1.5000271526722e-08,2.349412432610322e-05,1.5000271526722e-08,0.0003135787127221298,1.5000271526722e-08,0.0001041851144289792,1.5000271526722e-08,1,1.5000271526722e-08,0,1.5000271526722e-08,0,1.5000271526722e-08,0,1.5000271526722e-08,1,1.5000271526722e-08,0,1.5000271526722e-08,0,1.5000271526722e-08,1,1.5000271526722e-08,0
1.500027333780481e-08,7.224785342033598e-07,1.500027333780481e-08,0.0003656635494684372,1.500027333780481e-08,2.359654928799612e-05,1.500027333780481e-08,0.0003159745019757673,1.500027333780481e-08,0.0001052863617279965,1.500027333780481e-08,1,1.500027333780481e-08,0,1.500027333780481e-08,0,1.500027333780481e-08,0,1.500027333780481e-08,1,1.500027333780481e-08,0,1.500027333780481e-08,0,1.500027333780481e-08,1,1.500027333780481e-08,0
1.500027695997044e-08,7.248839355745002e-07,1.500027695997044e-08,0.000371162691972731,1.500027695997044e-08,2.38023089875313e-05,1.500027695997044e-08,0.0003206837311606903,1.500027695997044e-08,0.0001073412097223786,1.500027695997044e-08,1,1.500027695997044e-08,0,1.500027695997044e-08,0,1.500027695997044e-08,0,1.500027695997044e-08,1,1.500027695997044e-08,0,1.500027695997044e-08,0,1.500027695997044e-08,1,1.500027695997044e-08,0
1.500028083557917e-08,7.275283960040083e-07,1.500028083557917e-08,0.0003765264804870216,1.500028083557917e-08,2.401848657225119e-05,1.500028083557917e-08,0.000325343989820918,1.500028083557917e-08,0.0001088753815549196,1.500028083557917e-08,1,1.500028083557917e-08,0,1.500028083557917e-08,0,1.500028083557917e-08,0,1.500028083557917e-08,1,1.500028083557917e-08,0,1.500028083557917e-08,0,1.500028083557917e-08,1,1.500028083557917e-08,0
1.500028537810273e-08,7.306084085835819e-07,1.500028537810273e-08,0.0003820631853096476,1.500028537810273e-08,2.426020657306328e-05,1.500028537810273e-08,0.0003302807280232749,1.500028537810273e-08,0.00010974698840722,1.500028537810273e-08,1,1.500028537810273e-08,0,1.500028537810273e-08,0,1.500028537810273e-08,0,1.500028537810273e-08,1,1.500028537810273e-08,0,1.500028537810273e-08,0,1.500028537810273e-08,1,1.500028537810273e-08,0
1.50002865041715e-08,7.313582582340707e-07,1.50002865041715e-08,0.0003833670804483263,1.50002865041715e-08,2.431818162652319e-05,1.50002865041715e-08,0.0003314598860679539,1.50002865041715e-08,0.0001098824922544739,1.50002865041715e-08,1,1.50002865041715e-08,0,1.50002865041715e-08,0,1.50002865041715e-08,0,1.50002865041715e-08,1,1.50002865041715e-08,0,1.50002865041715e-08,0,1.50002865041715e-08,1,1.50002865041715e-08,0
1.500028875630905e-08,7.32837318557678e-07,1.500028875630905e-08,0.0003860048578507389,1.500028875630905e-08,2.44334918234103e-05,1.500028875630905e-08,0.0003338421484611799,1.500028875630905e-08,0.0001101916694256155,1.500028875630905e-08,1,1.500028875630905e-08,0,1.500028875630905e-08,0,1.500028875630905e-08,0,1.500028875630905e-08,1,1.500028875630905e-08,0,1.500028875630905e-08,0,1.500028875630905e-08,1,1.500028875630905e-08,0
1.500029326058415e-08,7.357763831386091e-07,1.500029326058415e-08,0.0003913341491848936,1.500029326058415e-08,2.466439913980929e-05,1.500029326058415e-08,0.0003386462578361783,1.500029326058415e-08,0.0001108651822488038,1.500029326058415e-08,1,1.500029326058415e-08,0,1.500029326058415e-08,0,1.500029326058415e-08,0,1.500029326058415e-08,1,1.500029326058415e-08,0,1.500029326058415e-08,0,1.500029326058415e-08,1,1.500029326058415e-08,0
1.500030226913434e-08,7.418849183371557e-07,1.500030226913434e-08,0.0004020812471877291,1.500030226913434e-08,2.5133172120272e-05,1.500030226913434e-08,0.0003483283890144669,1.500030226913434e-08,0.0001122725573470101,1.500030226913434e-08,1,1.500030226913434e-08,0,1.500030226913434e-08,0,1.500030226913434e-08,0,1.500030226913434e-08,1,1.500030226913434e-08,0,1.500030226913434e-08,0,1.500030226913434e-08,1,1.500030226913434e-08,0
1.500032028623473e-08,7.555159699297438e-07,1.500032028623473e-08,0.0004239752185179653,1.500032028623473e-08,2.610971817636349e-05,1.500032028623473e-08,0.0003680340456574739,1.500032028623473e-08,0.0001153296782371128,1.500032028623473e-08,1,1.500032028623473e-08,0,1.500032028623473e-08,0,1.500032028623473e-08,0,1.500032028623473e-08,1,1.500032028623473e-08,0,1.500032028623473e-08,0,1.500032028623473e-08,1,1.500032028623473e-08,0
1.500035632043551e-08,7.888922666353813e-07,1.500035632043551e-08,0.0004695234031626643,1.500035632043551e-08,2.823777842616357e-05,1.500035632043551e-08,0.0004089893928194909,1.500035632043551e-08,0.0001224860013887958,1.500035632043551e-08,1,1.500035632043551e-08,0,1.500035632043551e-08,0,1.500035632043551e-08,0,1.500035632043551e-08,1,1.500035632043551e-08,0,1.500035632043551e-08,0,1.500035632043551e-08,1,1.500035632043551e-08,0
