/c0 X,/c0 Y,/p0 X,/p0 Y,/g1 X,/g1 Y,/p1 X,/p1 Y,/g2 X,/g2 Y,/p2 X,/p2 Y,/g3 X,/g3 Y,/p3 X,/p3 Y,/c4 X,/c4 Y,/c3 X,/c3 Y,/c2 X,/c2 Y,/c1 X,/c1 Y,/g0 X,/g0 Y
0,0,0,0,0,0,0,0,0,0,0,0,0,0,0,0,0,5.339800129621313e-08,0,5.339800130073288e-08,0,5.339800130247499e-08,0,5.339800132922133e-08,0,0
8.000000000000001e-11,0,8.000000000000001e-11,0,8.000000000000001e-11,0,8.000000000000001e-11,0,8.000000000000001e-11,0,8.000000000000001e-11,0,8.000000000000001e-11,0,8.000000000000001e-11,0,8.000000000000001e-11,5.339800130805216e-08,8.000000000000001e-11,5.33980013125719e-08,8.000000000000001e-11,5.33980013143818e-08,8.000000000000001e-11,5.339800128533457e-08,8.000000000000001e-11,0
2.4e-10,0,2.4e-10,0,2.4e-10,0,2.4e-10,0,2.4e-10,0,2.4e-10,0,2.4e-10,0,2.4e-10,0,2.4e-10,5.339800130782217e-08,2.4e-10,5.339800131234197e-08,2.4e-10,5.339800131612907e-08,2.4e-10,5.339800128367918e-08,2.4e-10,0
5.599999999999999e-10,0,5.599999999999999e-10,0,5.599999999999999e-10,0,5.599999999999999e-10,0,5.599999999999999e-10,0,5.599999999999999e-10,0,5.599999999999999e-10,0,5.599999999999999e-10,0,5.599999999999999e-10,5.339800130941228e-08,5.599999999999999e-10,5.339800131291015e-08,5.599999999999999e-10,5.339800131453925e-08,5.599999999999999e-10,5.339800128627418e-08,5.599999999999999e-10,0
1.2e-09,0,1.2e-09,0,1.2e-09,0,1.2e-09,0,1.2e-09,0,1.2e-09,0,1.2e-09,0,1.2e-09,0,1.2e-09,5.339800130725701e-08,1.2e-09,5.339800131276581e-08,1.2e-09,5.339800131456311e-08,1.2e-09,5.339800128229599e-08,1.2e-09,0
2.48e-09,0,2.48e-09,0,2.48e-09,0,2.48e-09,0,2.48e-09,0,2.48e-09,0,2.48e-09,0,2.48e-09,0,2.48e-09,5.339800130935261e-08,2.48e-09,5.339800131289929e-08,2.48e-09,5.339800131482919e-08,2.48e-09,5.339800128632983e-08,2.48e-09,0
4.08e-09,0,4.08e-09,0,4.08e-09,0,4.08e-09,0,4.08e-09,0,4.08e-09,0,4.08e-09,0,4.08e-09,0,4.08e-09,5.339800130724828e-08,4.08e-09,5.339800131302451e-08,4.08e-09,5.339800131419449e-08,4.08e-09,5.339800128191295e-08,4.08e-09,0
5.68e-09,0,5.68e-09,0,5.68e-09,0,5.68e-09,0,5.68e-09,0,5.68e-09,0,5.68e-09,0,5.68e-09,0,5.68e-09,5.339800130937144e-08,5.68e-09,5.339800131287952e-08,5.68e-09,5.339800131513092e-08,5.68e-09,5.339800128646197e-08,5.68e-09,0
7.280000000000001e-09,0,7.280000000000001e-09,0,7.280000000000001e-09,0,7.280000000000001e-09,0,7.280000000000001e-09,0,7.280000000000001e-09,0,7.280000000000001e-09,0,7.280000000000001e-09,0,7.280000000000001e-09,5.33980013072854e-08,7.280000000000001e-09,5.339800131307649e-08,7.280000000000001e-09,5.339800131371652e-08,7.280000000000001e-09,5.339800128178722e-08,7.280000000000001e-09,0
8.880000000000001e-09,0,8.880000000000001e-09,0,8.880000000000001e-09,0,8.880000000000001e-09,0,8.880000000000001e-09,0,8.880000000000001e-09,0,8.880000000000001e-09,0,8.880000000000001e-09,0,8.880000000000001e-09,5.339800130937169e-08,8.880000000000001e-09,5.339800131274976e-08,8.880000000000001e-09,5.33980013155482e-08,8.880000000000001e-09,5.339800128650015e-08,8.880000000000001e-09,0
1e-08,0,1e-08,0,1e-08,0,1e-08,0,1e-08,0,1e-08,0,1e-08,0,1e-08,0,1e-08,5.339800130717625e-08,1e-08,5.339800131322272e-08,1e-08,5.339800131336302e-08,1e-08,5.339800128182163e-08,1e-08,0
1.16e-08,0,1.16e-08,0,1.16e-08,0,1.16e-08,0,1.16e-08,0,1.16e-08,0,1.16e-08,0,1.16e-08,0,1.16e-08,5.339800130829514e-08,1.16e-08,5.339800131288503e-08,1.16e-08,5.339800131460716e-08,1.16e-08,5.339800128418128e-08,1.16e-08,0
1.32e-08,0,1.32e-08,0,1.32e-08,0,1.32e-08,0,1.32e-08,0,1.32e-08,0,1.32e-08,0,1.32e-08,0,1.32e-08,5.339800130835993e-08,1.32e-08,5.339800131286358e-08,1.32e-08,5.339800131461392e-08,1.32e-08,5.339800128421673e-08,1.32e-08,0
1.48e-08,0,1.48e-08,0,1.48e-08,0,1.48e-08,0,1.48e-08,0,1.48e-08,0,1.48e-08,0,1.48e-08,0,1.48e-08,5.3398001308381e-08,1.48e-08,5.339800131290344e-08,1.48e-08,5.339800131451265e-08,1.48e-08,5.339800128399876e-08,1.48e-08,0
1.5e-08,0,1.5e-08,0,1.5e-08,0,1.5e-08,0,1.5e-08,0,1.5e-08,0,1.5e-08,0,1.5e-08,0,1.5e-08,5.339800130801296e-08,1.5e-08,5.339800131253305e-08,1.5e-08,5.339800131496901e-08,1.5e-08,5.339800128445044e-08,1.5e-08,0
1.5000001e-08,1,1.5000001e-08,1,1.5000001e-08,0,1.5000001e-08,0,1.5000001e-08,1,1.5000001e-08,0,1.5000001e-08,0,1.5000001e-08,0,1.5000001e-08,8.835811322203124e-08,1.5000001e-08,2.551611875119004e-07,1.5000001e-08,5.351666942592501e-08,1.5000001e-08,1.444325728440787e-07,1.5000001e-08,0
1.5000003e-08,1,1.5000003e-08,1,1.5000003e-08,0,1.5000003e-08,0,1.5000003e-08,1,1.5000003e-08,0,1.5000003e-08,0,1.5000003e-08,0,1.5000003e-08,3.694674339467574e-07,1.5000003e-08,1.862272309578034e-06,1.5000003e-08,5.528034498147688e-08,1.5000003e-08,9.496177845734272e-07,1.5000003e-08,0
1.5000007e-08,1,1.5000007e-08,1,1.5000007e-08,0,1.5000007e-08,0,1.5000007e-08,1,1.5000007e-08,0,1.5000007e-08,0,1.5000007e-08,0,1.5000007e-08,1.229658079078925e-06,1.5000007e-08,7.382683997174696e-06,1.5000007e-08,6.221871607810984e-08,1.5000007e-08,3.368465543762842e-06,1.5000007e-08,0
1.500001456666274e-08,1,1.500001456666274e-08,1,1.500001456666274e-08,0,1.500001456666274e-08,0,1.500001456666274e-08,1,1.500001456666274e-08,0,1.500001456666274e-08,0,1.500001456666274e-08,0,1.500001456666274e-08,3.753277199670009e-06,1.500001456666274e-08,2.449047452546326e-05,1.500001456666274e-08,8.81062897250676e-08,1.500001456666274e-08,9.323300887006971e-06,1.500001456666274e-08,0
1.500001834999411e-08,1,1.500001834999411e-08,1,1.500001834999411e-08,0,1.500001834999411e-08,0,1.500001834999411e-08,1,1.500001834999411e-08,0,1.500001834999411e-08,0,1.500001834999411e-08,0,1.500001834999411e-08,5.142019426606753e-06,1.500001834999411e-08,3.362072481063512e-05,1.500001834999411e-08,1.036979970375052e-07,1.500001834999411e-08,1.35210752888077e-05,1.500001834999411e-08,0
1.500002591665685e-08,1,1.500002591665685e-08,1,1.500002591665685e-08,0,1.500002591665685e-08,0,1.500002591665685e-08,1,1.500002591665685e-08,0,1.500002591665685e-08,0,1.500002591665685e-08,0,1.500002591665685e-08,7.678985445606178e-06,1.500002591665685e-08,5.065583407582051e-05,1.500002591665685e-08,1.314090780584306e-07,1.500002591665685e-08,2.039436202488003e-05,1.500002591665685e-08,0
1.500002969998821e-08,1,1.500002969998821e-08,1,1.500002969998821e-08,0,1.500002969998821e-08,0,1.500002969998821e-08,1,1.500002969998821e-08,0,1.500002969998821e-08,0,1.500002969998821e-08,0,1.500002969998821e-08,8.898562826585468e-06,1.500002969998821e-08,5.919709118755121e-05,1.500002969998821e-08,1.440313635006412e-07,1.500002969998821e-08,2.297549346359612e-05,1.500002969998821e-08,0
1.500003726665095e-08,1,1.500003726665095e-08,1,1.500003726665095e-08,0,1.500003726665095e-08,0,1.500003726665095e-08,1,1.500003726665095e-08,0,1.500003726665095e-08,0,1.500003726665095e-08,0,1.500003726665095e-08,1.139228570864723e-05,1.500003726665095e-08,7.633816597689268e-05,1.500003726665095e-08,1.699907363894462e-07,1.500003726665095e-08,2.958508964385748e-05,1.500003726665095e-08,0
1.500005239997643e-08,1,1.500005239997643e-08,1,1.500005239997643e-08,0,1.500005239997643e-08,0,1.500005239997643e-08,1,1.500005239997643e-08,0,1.500005239997643e-08,0,1.500005239997643e-08,0,1.500005239997643e-08,1.633217018697965e-05,1.500005239997643e-08,0.0001107387304328694,1.500005239997643e-08,2.221799299081539e-07,1.500005239997643e-08,4.223821661170658e-05,1.500005239997643e-08,0
1.500008266662738e-08,1,1.500008266662738e-08,1,1.500008266662738e-08,0,1.500008266662738e-08,0,1.500008266662738e-08,1,1.500008266662738e-08,0,1.500008266662738e-08,0,1.500008266662738e-08,0,1.500008266662738e-08,2.988592506768429e-05,1.500008266662738e-08,0.0001902419363944798,1.500008266662738e-08,3.619184828242542e-07,1.500008266662738e-08,6.892011336453985e-05,1.500008266662738e-08,0
1.500012690973854e-08,1,1.500012690973854e-08,1,1.500012690973854e-08,0,1.500012690973854e-08,0,1.500012690973854e-08,1,1.500012690973854e-08,0,1.500012690973854e-08,0,1.500012690973854e-08,0,1.500012690973854e-08,4.636833527874825e-05,1.500012690973854e-08,0.0003000083563002574,1.500012690973854e-08,5.388002878309142e-07,1.500012690973854e-08,0.000111311977672334,1.500012690973854e-08,0
1.500016424072429e-08,1,1.500016424072429e-08,1,1.500016424072429e-08,0,1.500016424072429e-08,0,1.500016424072429e-08,1,1.500016424072429e-08,0,1.500016424072429e-08,0,1.500016424072429e-08,0,1.500016424072429e-08,5.983848288347547e-05,1.500016424072429e-08,0.0003872152196828086,1.500016424072429e-08,6.742278945166201e-07,1.500016424072429e-08,0.0001539677577989346,1.500016424072429e-08,0
1.500017234497545e-08,1,1.500017234497545e-08,1,1.500017234497545e-08,0,1.500017234497545e-08,0,1.500017234497545e-08,1,1.500017234497545e-08,0,1.500017234497545e-08,0,1.500017234497545e-08,0,1.500017234497545e-08,6.305123733584266e-05,1.500017234497545e-08,0.0004057213829082309,1.500017234497545e-08,7.958681218047117e-07,1.500017234497545e-08,0.0001642465603119318,1.500017234497545e-08,0
1.500017335800685e-08,1,1.500017335800685e-08,1,1.500017335800685e-08,0,1.500017335800685e-08,0,1.500017335800685e-08,1,1.500017335800685e-08,0,1.500017335800685e-08,0,1.500017335800685e-08,0,1.500017335800685e-08,6.334907064476459e-05,1.500017335800685e-08,0.000407759916460057,1.500017335800685e-08,8.113806731606861e-07,1.500017335800685e-08,0.0001655957173879327,1.500017335800685e-08,0
1.500017538406963e-08,1,1.500017538406963e-08,1,1.500017538406963e-08,0,1.500017538406963e-08,0,1.500017538406963e-08,1,1.500017538406963e-08,0,1.500017538406963e-08,0,1.500017538406963e-08,0,1.500017538406963e-08,6.408004541053766e-05,1.500017538406963e-08,0.0004121713728072562,1.500017538406963e-08,8.170159448559335e-07,1.500017538406963e-08,0.0001682845557632306,1.500017538406963e-08,0
1.500017639710103e-08,1,1.500017639710103e-08,1,1.500017639710103e-08,0,1.500017639710103e-08,0,1.500017639710103e-08,1,1.500017639710103e-08,0,1.500017639710103e-08,0,1.500017639710103e-08,0,1.500017639710103e-08,6.446092260868627e-05,1.500017639710103e-08,0.0004144157354141972,1.500017639710103e-08,8.176439469747389e-07,1.500017639710103e-08,0.0001696438123435609,1.500017639710103e-08,0
1.500017842316382e-08,1,1.500017842316382e-08,1,1.500017842316382e-08,0,1.500017842316382e-08,0,1.500017842316382e-08,1,1.500017842316382e-08,0,1.500017842316382e-08,0,1.500017842316382e-08,0,1.500017842316382e-08,6.521577799975871e-05,1.500017842316382e-08,0.0004188768749019875,1.500017842316382e-08,8.221526100549774e-07,1.500017842316382e-08,0.0001724114063472659,1.500017842316382e-08,0
1.500018247528939e-08,1,1.500018247528939e-08,1,1.500018247528939e-08,0,1.500018247528939e-08,0,1.500018247528939e-08,1,1.500018247528939e-08,0,1.500018247528939e-08,0,1.500018247528939e-08,0,1.500018247528939e-08,6.671740177070321e-05,1.500018247528939e-08,0.0004277295292598391,1.500018247528939e-08,8.366249958318247e-07,1.500018247528939e-08,0.0001781609527528083,1.500018247528939e-08,0
1.500019057954054e-08,1,1.500019057954054e-08,1,1.500019057954054e-08,0,1.500019057954054e-08,0,1.500019057954054e-08,1,1.500019057954054e-08,0,1.500019057954054e-08,0,1.500019057954054e-08,0,1.500019057954054e-08,6.972489868902874e-05,1.500019057954054e-08,0.0004452576820355401,1.500019057954054e-08,8.708713331073022e-07,1.500019057954054e-08,0.0001910165467470753,1.500019057954054e-08,0
1.500019258027931e-08,1,1.500019258027931e-08,1,1.500019258027931e-08,0,1.500019258027931e-08,0,1.500019258027931e-08,1,1.500019258027931e-08,0,1.500019258027931e-08,0,1.500019258027931e-08,0,1.500019258027931e-08,7.046980490532947e-05,1.500019258027931e-08,0.0004495547818943797,1.500019258027931e-08,8.795763201045362e-07,1.500019258027931e-08,0.0001945442411881467,1.500019258027931e-08,0
1.500019658175686e-08,1,1.500019658175686e-08,1,1.500019658175686e-08,0,1.500019658175686e-08,0,1.500019658175686e-08,1,1.500019658175686e-08,0,1.500019658175686e-08,0,1.500019658175686e-08,0,1.500019658175686e-08,7.196263903243928e-05,1.500019658175686e-08,0.0004581192091427834,1.500019658175686e-08,8.969912947215655e-07,1.500019658175686e-08,0.0002017895032500972,1.500019658175686e-08,0
1.500019765815812e-08,1,1.500019765815812e-08,1,1.500019765815812e-08,0,1.500019765815812e-08,0,1.500019765815812e-08,1,1.500019765815812e-08,0,1.500019765815812e-08,0,1.500019765815812e-08,0,1.500019765815812e-08,7.236489126298758e-05,1.500019765815812e-08,0.0004604164960689479,1.500019765815812e-08,9.016811992974096e-07,1.500019765815812e-08,0.000203689709114707,1.500019765815812e-08,0
1.500019981096065e-08,1,1.500019981096065e-08,1,1.500019981096065e-08,0,1.500019981096065e-08,0,1.500019981096065e-08,1,1.500019981096065e-08,0,1.500019981096065e-08,0,1.500019981096065e-08,0,1.500019981096065e-08,7.317034342278583e-05,1.500019981096065e-08,0.0004650033790466211,1.500019981096065e-08,9.110751256711213e-07,1.500019981096065e-08,0.0002069508263026024,1.500019981096065e-08,0
1.500020302933972e-08,1,1.500020302933972e-08,1,1.500020302933972e-08,0,1.500020302933972e-08,0,1.500020302933972e-08,1,1.500020302933972e-08,0,1.500020302933972e-08,0,1.500020302933972e-08,0,1.500020302933972e-08,7.43772080337004e-05,1.500020302933972e-08,0.000471843359086817,1.500020302933972e-08,9.25165183449631e-07,1.500020302933972e-08,0.0002101814810431905,1.500020302933972e-08,0
1.500020568431743e-08,1,1.500020568431743e-08,1,1.500020568431743e-08,0,1.500020568431743e-08,0,1.500020568431743e-08,1,1.500020568431743e-08,0,1.500020568431743e-08,0,1.500020568431743e-08,0,1.500020568431743e-08,7.537557237438315e-05,1.500020568431743e-08,0.0004774722891668767,1.500020568431743e-08,9.368399168678906e-07,1.500020568431743e-08,0.0002118793256965889,1.500020568431743e-08,0
1.500020929291675e-08,1,1.500020929291675e-08,1,1.500020929291675e-08,0,1.500020929291675e-08,0,1.500020929291675e-08,1,1.500020929291675e-08,0,1.500020929291675e-08,0,1.500020929291675e-08,0,1.500020929291675e-08,7.673640519233244e-05,1.500020929291675e-08,0.0004851062588067125,1.500020929291675e-08,9.528011129752891e-07,1.500020929291675e-08,0.0002141879411418005,1.500020929291675e-08,0
1.500021651011541e-08,1,1.500021651011541e-08,1,1.500021651011541e-08,0,1.500021651011541e-08,0,1.500021651011541e-08,1,1.500021651011541e-08,0,1.500021651011541e-08,0,1.500021651011541e-08,0,1.500021651011541e-08,7.947264731087569e-05,1.500021651011541e-08,0.0005003311140822197,1.500021651011541e-08,9.850783280724697e-07,1.500021651011541e-08,0.0002194776792776494,1.500021651011541e-08,0
1.500021791269201e-08,1,1.500021791269201e-08,1,1.500021791269201e-08,0,1.500021791269201e-08,0,1.500021791269201e-08,1,1.500021791269201e-08,0,1.500021791269201e-08,0,1.500021791269201e-08,0,1.500021791269201e-08,8.000689245963142e-05,1.500021791269201e-08,0.0005032845973083054,1.500021791269201e-08,9.914038448379719e-07,1.500021791269201e-08,0.0002205557490434328,1.500021791269201e-08,0
1.500022071784523e-08,1,1.500022071784523e-08,1,1.500022071784523e-08,0,1.500022071784523e-08,0,1.500022071784523e-08,1,1.500022071784523e-08,0,1.500022071784523e-08,0,1.500022071784523e-08,0,1.500022071784523e-08,8.107806941947269e-05,1.500022071784523e-08,0.0005091898592229335,1.500022071784523e-08,1.004056616747754e-06,1.500022071784523e-08,0.0002227275366134303,1.500022071784523e-08,0
1.500022157919794e-08,1,1.500022157919794e-08,1,1.500022157919794e-08,0,1.500022157919794e-08,0,1.500022157919794e-08,1,1.500022157919794e-08,0,1.500022157919794e-08,0,1.500022157919794e-08,0,1.500022157919794e-08,8.140809812984024e-05,1.500022157919794e-08,0.0005110061662813356,1.500022157919794e-08,1.007933217100779e-06,1.500022157919794e-08,0.0002233972799185766,1.500022157919794e-08,0
1.500022330190338e-08,1,1.500022330190338e-08,1,1.500022330190338e-08,0,1.500022330190338e-08,0,1.500022330190338e-08,1,1.500022330190338e-08,0,1.500022330190338e-08,0,1.500022330190338e-08,0,1.500022330190338e-08,8.206895553006124e-05,1.500022330190338e-08,0.0005146351107651474,1.500022330190338e-08,1.015639340449834e-06,1.500022330190338e-08,0.0002247409021066546,1.500022330190338e-08,0
1.500022605803473e-08,1,1.500022605803473e-08,1,1.500022605803473e-08,0,1.500022605803473e-08,0,1.500022605803473e-08,1,1.500022605803473e-08,0,1.500022605803473e-08,0,1.500022605803473e-08,0,1.500022605803473e-08,8.312829093716867e-05,1.500022605803473e-08,0.0005204385113839738,1.500022605803473e-08,1.027773039607597e-06,1.500022605803473e-08,0.0002269200364947519,1.500022605803473e-08,0
1.500023157029743e-08,1,1.500023157029743e-08,1,1.500023157029743e-08,0,1.500023157029743e-08,0,1.500023157029743e-08,1,1.500023157029743e-08,0,1.500023157029743e-08,0,1.500023157029743e-08,0,1.500023157029743e-08,8.525970125287632e-05,1.500023157029743e-08,0.000532071193296858,1.500023157029743e-08,1.051509339314378e-06,1.500023157029743e-08,0.0002313568104256749,1.500023157029743e-08,0
1.500024259482283e-08,1,1.500024259482283e-08,1,1.500024259482283e-08,0,1.500024259482283e-08,0,1.500024259482283e-08,1,1.500024259482283e-08,0,1.500024259482283e-08,0,1.500024259482283e-08,0,1.500024259482283e-08,8.957896125250971e-05,1.500024259482283e-08,0.0005556048785118119,1.500024259482283e-08,1.099004903795031e-06,1.500024259482283e-08,0.0002405501160410367,1.500024259482283e-08,0
1.500025785930137e-08,1,1.500025785930137e-08,1,1.500025785930137e-08,0,1.500025785930137e-08,0,1.500025785930137e-08,1,1.500025785930137e-08,0,1.500025785930137e-08,0,1.500025785930137e-08,0,1.500025785930137e-08,9.571692255414202e-05,1.500025785930137e-08,0.0005899361632560212,1.500025785930137e-08,1.166656156432446e-06,1.500025785930137e-08,0.0002540140478364296,1.500025785930137e-08,0
1.500026174300187e-08,1,1.500026174300187e-08,1,1.500026174300187e-08,0,1.500026174300187e-08,0,1.500026174300187e-08,1,1.500026174300187e-08,0,1.500026174300187e-08,0,1.500026174300187e-08,0,1.500026174300187e-08,9.73136547698716e-05,1.500026174300187e-08,0.0005992099963614214,1.500026174300187e-08,1.184232468100763e-06,1.500026174300187e-08,0.0002575670358147692,1.500026174300187e-08,0
1.500026951040288e-08,1,1.500026951040288e-08,1,1.500026951040288e-08,0,1.500026951040288e-08,0,1.500026951040288e-08,1,1.500026951040288e-08,0,1.500026951040288e-08,0,1.500026951040288e-08,0,1.500026951040288e-08,0.000100566774537592,1.500026951040288e-08,0.0006193484392100768,1.500026951040288e-08,1.219997042250848e-06,1.500026951040288e-08,0.0002647841451901016,1.500026951040288e-08,0
1.500027093651853e-08,1,1.500027093651853e-08,1,1.500027093651853e-08,0,1.500027093651853e-08,0,1.500027093651853e-08,1,1.500027093651853e-08,0,1.500027093651853e-08,0,1.500027093651853e-08,0,1.500027093651853e-08,0.0001011737657469038,1.500027093651853e-08,0.000623336833843022,1.500027093651853e-08,1.226667617840613e-06,1.500027093651853e-08,0.0002661280943808943,1.500027093651853e-08,0
1.500027378874983e-08,1,1.500027378874983e-08,1,1.500027378874983e-08,0,1.500027378874983e-08,0,1.500027378874983e-08,1,1.500027378874983e-08,0,1.500027378874983e-08,0,1.500027378874983e-08,0,1.500027378874983e-08,0.0001023935860607895,1.500027378874983e-08,0.0006316801671937273,1.500027378874983e-08,1.24009981773981e-06,1.500027378874983e-08,0.0002688568414947545,1.500027378874983e-08,0
1.500027796180325e-08,1,1.500027796180325e-08,1,1.500027796180325e-08,0,1.500027796180325e-08,0,1.500027796180325e-08,1,1.500027796180325e-08,0,1.500027796180325e-08,0,1.500027796180325e-08,0,1.500027796180325e-08,0.0001041746750393443,1.500027796180325e-08,0.0006443215332882316,1.500027796180325e-08,1.259795265343488e-06,1.500027796180325e-08,0.0002729320483098882,1.500027796180325e-08,0
1.500028210094635e-08,1,1.500028210094635e-08,1,1.500028210094635e-08,0,1.500028210094635e-08,0,1.500028210094635e-08,1,1.500028210094635e-08,0,1.500028210094635e-08,0,1.500028210094635e-08,0,1.500028210094635e-08,0.0001059232462089938,1.500028210094635e-08,0.0006550481773612073,1.500028210094635e-08,1.279140733701566e-06,1.500028210094635e-08,0.0002770299077165261,1.500028210094635e-08,0
