/a0 X,/a0 Y,/a1 X,/a1 Y,/a2 X,/a2 Y,/a3 X,/a3 Y,/b0 X,/b0 Y,/b1 X,/b1 Y,/b2 X,/b2 Y,/b3 X,/b3 Y,/s0 X,/s0 Y,/s1 X,/s1 Y,/s2 X,/s2 Y,/s3 X,/s3 Y,/a4 X,/a4 Y,/a5 X,/a5 Y,/a6 X,/a6 Y,/a7 X,/a7 Y,/b4 X,/b4 Y,/b5 X,/b5 Y,/b6 X,/b6 Y,/b7 X,/b7 Y,/cout X,/cout Y,/s4 X,/s4 Y,/s5 X,/s5 Y,/s6 X,/s6 Y,/s7 X,/s7 Y
0,0,0,0,0,0,0,0,0,0,0,0,0,0,0,0,0,1.188901319390057e-07,0,1.18890126177156e-07,0,1.18890126205141e-07,0,1.188901260849784e-07,0,0,0,0,0,0,0,0,0,0,0,0,0,0,0,0,0,5.339800129489946e-08,0,1.188901200923984e-07,0,1.188901261180075e-07,0,1.18890126117783e-07,0,1.188901261768565e-07
3e-11,0,3e-11,0,3e-11,0,3e-11,0,3e-11,0,3e-11,0,3e-11,0,3e-11,0,3e-11,1.188901425355578e-07,3e-11,1.188901366918629e-07,3e-11,1.188901367197834e-07,3e-11,1.188901367498894e-07,3e-11,0,3e-11,0,3e-11,0,3e-11,0,3e-11,0,3e-11,0,3e-11,0,3e-11,0,3e-11,5.339800130637959e-08,3e-11,1.188901306009807e-07,3e-11,1.188901366327199e-07,3e-11,1.188901366844418e-07,3e-11,1.188901367407148e-07
9e-11,0,9e-11,0,9e-11,0,9e-11,0,9e-11,0,9e-11,0,9e-11,0,9e-11,0,9e-11,1.188901438396027e-07,9e-11,1.188901380198849e-07,9e-11,1.188901380473876e-07,9e-11,1.188901380917487e-07,9e-11,0,9e-11,0,9e-11,0,9e-11,0,9e-11,0,9e-11,0,9e-11,0,9e-11,0,9e-11,5.339800130762768e-08,9e-11,1.188901319193404e-07,9e-11,1.188901379607467e-07,9e-11,1.188901380179001e-07,9e-11,1.188901380797961e-07
2.1e-10,0,2.1e-10,0,2.1e-10,0,2.1e-10,0,2.1e-10,0,2.1e-10,0,2.1e-10,0,2.1e-10,0,2.1e-10,1.188901440100971e-07,2.1e-10,1.188901381918513e-07,2.1e-10,1.188901382273752e-07,2.1e-10,1.188901382763728e-07,2.1e-10,0,2.1e-10,0,2.1e-10,0,2.1e-10,0,2.1e-10,0,2.1e-10,0,2.1e-10,0,2.1e-10,0,2.1e-10,5.339800130743681e-08,2.1e-10,1.188901321034238e-07,2.1e-10,1.18890138132643e-07,2.1e-10,1.18890138196361e-07,2.1e-10,1.188901382454087e-07
4.5e-10,0,4.5e-10,0,4.5e-10,0,4.5e-10,0,4.5e-10,0,4.5e-10,0,4.5e-10,0,4.5e-10,0,4.5e-10,1.188901438644339e-07,4.5e-10,1.188901380358891e-07,4.5e-10,1.188901380633729e-07,4.5e-10,1.188901381156999e-07,4.5e-10,0,4.5e-10,0,4.5e-10,0,4.5e-10,0,4.5e-10,0,4.5e-10,0,4.5e-10,0,4.5e-10,0,4.5e-10,5.339800130765191e-08,4.5e-10,1.188901319402966e-07,4.5e-10,1.18890137979046e-07,4.5e-10,1.18890138034248e-07,4.5e-10,1.188901380999707e-07
9.3e-10,0,9.3e-10,0,9.3e-10,0,9.3e-10,0,9.3e-10,0,9.3e-10,0,9.3e-10,0,9.3e-10,0,9.3e-10,1.188901439928874e-07,9.3e-10,1.188901381822904e-07,9.3e-10,1.188901382090308e-07,9.3e-10,1.188901382569585e-07,9.3e-10,0,9.3e-10,0,9.3e-10,0,9.3e-10,0,9.3e-10,0,9.3e-10,0,9.3e-10,0,9.3e-10,0,9.3e-10,5.339800130632882e-08,9.3e-10,1.188901320858433e-07,9.3e-10,1.188901381189849e-07,9.3e-10,1.188901381793441e-07,9.3e-10,1.188901382294634e-07
1.53e-09,0,1.53e-09,0,1.53e-09,0,1.53e-09,0,1.53e-09,0,1.53e-09,0,1.53e-09,0,1.53e-09,0,1.53e-09,1.188901438573157e-07,1.53e-09,1.188901380290673e-07,1.53e-09,1.188901380599469e-07,1.53e-09,1.188901381096695e-07,1.53e-09,0,1.53e-09,0,1.53e-09,0,1.53e-09,0,1.53e-09,0,1.53e-09,0,1.53e-09,0,1.53e-09,0,1.53e-09,5.339800130688132e-08,1.53e-09,1.188901319357026e-07,1.53e-09,1.188901379738851e-07,1.53e-09,1.18890138028384e-07,1.53e-09,1.188901380939441e-07
2e-09,0,2e-09,0,2e-09,0,2e-09,0,2e-09,0,2e-09,0,2e-09,0,2e-09,0,2e-09,1.18890143978959e-07,2e-09,1.188901381662963e-07,2e-09,1.188901381902864e-07,2e-09,1.188901382424158e-07,2e-09,0,2e-09,0,2e-09,0,2e-09,0,2e-09,0,2e-09,0,2e-09,0,2e-09,0,2e-09,5.339800130673195e-08,2e-09,1.188901320684803e-07,2e-09,1.188901381017878e-07,2e-09,1.188901381611173e-07,2e-09,1.188901382130249e-07
2.000013033854167e-09,0.0001303385416652186,2.000013033854167e-09,0,2.000013033854167e-09,0,2.000013033854167e-09,0,2.000013033854167e-09,0.0001303385416652186,2.000013033854167e-09,0.0001303385416652186,2.000013033854167e-09,0.0001303385416652186,2.000013033854167e-09,0.0001303385416652186,2.000013033854167e-09,2.926999938130208e-07,2.000013033854167e-09,2.705088401374161e-07,2.000013033854167e-09,2.703714385955684e-07,2.000013033854167e-09,2.91112630445387e-07,2.000013033854167e-09,0.0001303385416652186,2.000013033854167e-09,0,2.000013033854167e-09,0,2.000013033854167e-09,0,2.000013033854167e-09,0.0001303385416652186,2.000013033854167e-09,0.0001303385416652186,2.000013033854167e-09,0.0001303385416652186,2.000013033854167e-09,0.0001303385416652186,2.000013033854167e-09,5.353375053475385e-08,2.000013033854167e-09,3.116254331845939e-07,2.000013033854167e-09,2.705105198513728e-07,2.000013033854167e-09,2.7037145946019e-07,2.000013033854167e-09,2.9111404026742e-07
2.0000391015625e-09,0.0003910156249956558,2.0000391015625e-09,0,2.0000391015625e-09,0,2.0000391015625e-09,0,2.0000391015625e-09,0.0003910156249956558,2.0000391015625e-09,0.0003910156249956558,2.0000391015625e-09,0.0003910156249956558,2.0000391015625e-09,0.0003910156249956558,2.0000391015625e-09,7.055819439944844e-07,2.0000391015625e-09,6.295317886256011e-07,2.0000391015625e-09,6.287376460723527e-07,2.0000391015625e-09,6.993885990595202e-07,2.0000391015625e-09,0.0003910156249956558,2.0000391015625e-09,0,2.0000391015625e-09,0,2.0000391015625e-09,0,2.0000391015625e-09,0.0003910156249956558,2.0000391015625e-09,0.0003910156249956558,2.0000391015625e-09,0.0003910156249956558,2.0000391015625e-09,0.0003910156249956558,2.0000391015625e-09,5.398683930913342e-08,2.0000391015625e-09,7.715594795918385e-07,2.0000391015625e-09,6.295387838191659e-07,2.0000391015625e-09,6.287377395982977e-07,2.0000391015625e-09,6.993944276492108e-07
2.000052135416666e-09,0.0005213541666608744,2.000052135416666e-09,0,2.000052135416666e-09,0,2.000052135416666e-09,0,2.000052135416666e-09,0.0005213541666608744,2.000052135416666e-09,0.0005213541666608744,2.000052135416666e-09,0.0005213541666608744,2.000052135416666e-09,0.0005213541666608744,2.000052135416666e-09,9.463268375475763e-07,2.000052135416666e-09,8.286850975416344e-07,2.000052135416666e-09,8.24965236511425e-07,2.000052135416666e-09,9.221359029592918e-07,2.000052135416666e-09,0.0005213541666608744,2.000052135416666e-09,0,2.000052135416666e-09,0,2.000052135416666e-09,0,2.000052135416666e-09,0.0005213541666608744,2.000052135416666e-09,0.0005213541666608744,2.000052135416666e-09,0.0005213541666608744,2.000052135416666e-09,0.0005213541666608744,2.000052135416666e-09,5.432221908958725e-08,2.000052135416666e-09,1.040196369761694e-06,2.000052135416666e-09,8.28695682393925e-07,2.000052135416666e-09,8.249653825420343e-07,2.000052135416666e-09,9.221446878660764e-07
2.000078203124999e-09,0.0007820312499913116,2.000078203124999e-09,0,2.000078203124999e-09,0,2.000078203124999e-09,0,2.000078203124999e-09,0.0007820312499913116,2.000078203124999e-09,0.0007820312499913116,2.000078203124999e-09,0.0007820312499913116,2.000078203124999e-09,0.0007820312499913116,2.000078203124999e-09,1.379353496844292e-06,2.000078203124999e-09,1.197610234944215e-06,2.000078203124999e-09,1.189560455039178e-06,2.000078203124999e-09,1.336253449575795e-06,2.000078203124999e-09,0.0007820312499913116,2.000078203124999e-09,0,2.000078203124999e-09,0,2.000078203124999e-09,0,2.000078203124999e-09,0.0007820312499913116,2.000078203124999e-09,0.0007820312499913116,2.000078203124999e-09,0.0007820312499913116,2.000078203124999e-09,0.0007820312499913116,2.000078203124999e-09,5.495306973070578e-08,2.000078203124999e-09,1.523233497791076e-06,2.000078203124999e-09,1.197627243370171e-06,2.000078203124999e-09,1.189560696718955e-06,2.000078203124999e-09,1.336267501951197e-06
2.000091236979166e-09,0.0009123697916565303,2.000091236979166e-09,0,2.000091236979166e-09,0,2.000091236979166e-09,0,2.000091236979166e-09,0.0009123697916565303,2.000091236979166e-09,0.0009123697916565303,2.000091236979166e-09,0.0009123697916565303,2.000091236979166e-09,0.0009123697916565303,2.000091236979166e-09,1.587341736359109e-06,2.000091236979166e-09,1.376982384032137e-06,2.000091236979166e-09,1.368946187830017e-06,2.000091236979166e-09,1.540817807505296e-06,2.000091236979166e-09,0.0009123697916565303,2.000091236979166e-09,0,2.000091236979166e-09,0,2.000091236979166e-09,0,2.000091236979166e-09,0.0009123697916565303,2.000091236979166e-09,0.0009123697916565303,2.000091236979166e-09,0.0009123697916565303,2.000091236979166e-09,0.0009123697916565303,2.000091236979166e-09,5.520472294318789e-08,2.000091236979166e-09,1.754718279561379e-06,2.000091236979166e-09,1.377002229650908e-06,2.000091236979166e-09,1.368946470594119e-06,2.000091236979166e-09,1.540834191374715e-06
2.000117304687499e-09,0.001173046874986968,2.000117304687499e-09,0,2.000117304687499e-09,0,2.000117304687499e-09,0,2.000117304687499e-09,0.001173046874986968,2.000117304687499e-09,0.001173046874986968,2.000117304687499e-09,0.001173046874986968,2.000117304687499e-09,0.001173046874986968,2.000117304687499e-09,2.009055428448742e-06,2.000117304687499e-09,1.735201305226551e-06,2.000117304687499e-09,1.724154581712516e-06,2.000117304687499e-09,1.944700931462347e-06,2.000117304687499e-09,0.001173046874986968,2.000117304687499e-09,0,2.000117304687499e-09,0,2.000117304687499e-09,0,2.000117304687499e-09,0.001173046874986968,2.000117304687499e-09,0.001173046874986968,2.000117304687499e-09,0.001173046874986968,2.000117304687499e-09,0.001173046874986968,2.000117304687499e-09,5.570204882384815e-08,2.000117304687499e-09,2.22406117707697e-06,2.000117304687499e-09,1.73522676262232e-06,2.000117304687499e-09,1.724154944380709e-06,2.000117304687499e-09,1.944721934116499e-06
2.000169440104165e-09,0.001694401041647842,2.000169440104165e-09,0,2.000169440104165e-09,0,2.000169440104165e-09,0,2.000169440104165e-09,0.001694401041647842,2.000169440104165e-09,0.001694401041647842,2.000169440104165e-09,0.001694401041647842,2.000169440104165e-09,0.001694401041647842,2.000169440104165e-09,2.820912040417583e-06,2.000169440104165e-09,2.428234502157125e-06,2.000169440104165e-09,2.413433981011895e-06,2.000169440104165e-09,2.729223059954972e-06,2.000169440104165e-09,0.001694401041647842,2.000169440104165e-09,0,2.000169440104165e-09,0,2.000169440104165e-09,0,2.000169440104165e-09,0.001694401041647842,2.000169440104165e-09,0.001694401041647842,2.000169440104165e-09,0.001694401041647842,2.000169440104165e-09,0.001694401041647842,2.000169440104165e-09,5.663013065324035e-08,2.000169440104165e-09,3.12619796079354e-06,2.000169440104165e-09,2.428270280108416e-06,2.000169440104165e-09,2.413434487798552e-06,2.000169440104165e-09,2.729252554716074e-06
2.000273710937497e-09,0.002737109374969591,2.000273710937497e-09,0,2.000273710937497e-09,0,2.000273710937497e-09,0,2.000273710937497e-09,0.002737109374969591,2.000273710937497e-09,0.002737109374969591,2.000273710937497e-09,0.002737109374969591,2.000273710937497e-09,0.002737109374969591,2.000273710937497e-09,4.369296343817243e-06,2.000273710937497e-09,3.741034841871777e-06,2.000273710937497e-09,3.718608485451916e-06,2.000273710937497e-09,4.214414735167738e-06,2.000273710937497e-09,0.002737109374969591,2.000273710937497e-09,0,2.000273710937497e-09,0,2.000273710937497e-09,0,2.000273710937497e-09,0.002737109374969591,2.000273710937497e-09,0.002737109374969591,2.000273710937497e-09,0.002737109374969591,2.000273710937497e-09,0.002737109374969591,2.000273710937497e-09,5.808135934031579e-08,2.000273710937497e-09,4.841581156724663e-06,2.000273710937497e-09,3.741087683018476e-06,2.000273710937497e-09,3.718609216432134e-06,2.000273710937497e-09,4.214458294114719e-06
2.000482252604161e-09,0.004822526041613089,2.000482252604161e-09,0,2.000482252604161e-09,0,2.000482252604161e-09,0,2.000482252604161e-09,0.004822526041613089,2.000482252604161e-09,0.004822526041613089,2.000482252604161e-09,0.004822526041613089,2.000482252604161e-09,0.004822526041613089,2.000482252604161e-09,7.133136387949213e-06,2.000482252604161e-09,6.074872524887884e-06,2.000482252604161e-09,6.043309634181496e-06,2.000482252604161e-09,6.86058495675117e-06,2.000482252604161e-09,0.004822526041613089,2.000482252604161e-09,0,2.000482252604161e-09,0,2.000482252604161e-09,0,2.000482252604161e-09,0.004822526041613089,2.000482252604161e-09,0.004822526041613089,2.000482252604161e-09,0.004822526041613089,2.000482252604161e-09,0.004822526041613089,2.000482252604161e-09,5.980325740485938e-08,2.000482252604161e-09,7.885414996214296e-06,2.000482252604161e-09,6.074947598729756e-06,2.000482252604161e-09,6.043310609748481e-06,2.000482252604161e-09,6.860646915918622e-06
2.00089933593749e-09,0.008993359374900084,2.00089933593749e-09,0,2.00089933593749e-09,0,2.00089933593749e-09,0,2.00089933593749e-09,0.008993359374900084,2.00089933593749e-09,0.008993359374900084,2.00089933593749e-09,0.008993359374900084,2.00089933593749e-09,0.008993359374900084,2.00089933593749e-09,1.149959922092824e-05,2.00089933593749e-09,9.723193042798147e-06,2.00089933593749e-09,9.685833044690759e-06,2.00089933593749e-09,1.100556345750886e-05,2.00089933593749e-09,0.008993359374900084,2.00089933593749e-09,0,2.00089933593749e-09,0,2.00089933593749e-09,0,2.00089933593749e-09,0.008993359374900084,2.00089933593749e-09,0.008993359374900084,2.00089933593749e-09,0.008993359374900084,2.00089933593749e-09,0.008993359374900084,2.00089933593749e-09,5.99307239274446e-08,2.00089933593749e-09,1.263731296499027e-05,2.00089933593749e-09,9.723278128729694e-06,2.00089933593749e-09,9.685833966920256e-06,2.00089933593749e-09,1.100563396904064e-05
2.001733502604148e-09,0.01733502604147407,2.001733502604148e-09,0,2.001733502604148e-09,0,2.001733502604148e-09,0,2.001733502604148e-09,0.01733502604147407,2.001733502604148e-09,0.01733502604147407,2.001733502604148e-09,0.01733502604147407,2.001733502604148e-09,0.01733502604147407,2.001733502604148e-09,1.64745908791545e-05,2.001733502604148e-09,1.384437460879379e-05,2.001733502604148e-09,1.385139595508599e-05,2.001733502604148e-09,1.570298159739287e-05,2.001733502604148e-09,0.01733502604147407,2.001733502604148e-09,0,2.001733502604148e-09,0,2.001733502604148e-09,0,2.001733502604148e-09,0.01733502604147407,2.001733502604148e-09,0.01733502604147407,2.001733502604148e-09,0.01733502604147407,2.001733502604148e-09,0.01733502604147407,2.001733502604148e-09,5.565116952445259e-08,2.001733502604148e-09,1.78998492417585e-05,2.001733502604148e-09,1.384441395111322e-05,2.001733502604148e-09,1.385139597146031e-05,2.001733502604148e-09,1.570301488583388e-05
2.003401835937462e-09,0.03401835937462205,2.003401835937462e-09,0,2.003401835937462e-09,0,2.003401835937462e-09,0,2.003401835937462e-09,0.03401835937462205,2.003401835937462e-09,0.03401835937462205,2.003401835937462e-09,0.03401835937462205,2.003401835937462e-09,0.03401835937462205,2.003401835937462e-09,1.974224503519965e-05,2.003401835937462e-09,1.663622133907799e-05,2.003401835937462e-09,1.669621622972592e-05,2.003401835937462e-09,1.885652978130084e-05,2.003401835937462e-09,0.03401835937462205,2.003401835937462e-09,0,2.003401835937462e-09,0,2.003401835937462e-09,0,2.003401835937462e-09,0.03401835937462205,2.003401835937462e-09,0.03401835937462205,2.003401835937462e-09,0.03401835937462205,2.003401835937462e-09,0.03401835937462205,2.003401835937462e-09,4.642363506408401e-08,2.003401835937462e-09,2.097635676635723e-05,2.003401835937462e-09,1.663616631344026e-05,2.003401835937462e-09,1.669621513220669e-05,2.003401835937462e-09,1.885648188712179e-05
2.006738502604092e-09,0.06738502604091802,2.006738502604092e-09,0,2.006738502604092e-09,0,2.006738502604092e-09,0,2.006738502604092e-09,0.06738502604091802,2.006738502604092e-09,0.06738502604091802,2.006738502604092e-09,0.06738502604091802,2.006738502604092e-09,0.06738502604091802,2.006738502604092e-09,7.201172891883333e-06,2.006738502604092e-09,6.787317068280388e-06,2.006738502604092e-09,6.801486418926134e-06,2.006738502604092e-09,7.265415728915272e-06,2.006738502604092e-09,0.06738502604091802,2.006738502604092e-09,0,2.006738502604092e-09,0,2.006738502604092e-09,0,2.006738502604092e-09,0.06738502604091802,2.006738502604092e-09,0.06738502604091802,2.006738502604092e-09,0.06738502604091802,2.006738502604092e-09,0.06738502604091802,2.006738502604092e-09,5.162362249314328e-08,2.006738502604092e-09,7.142896717032238e-06,2.006738502604092e-09,6.787246214155369e-06,2.006738502604092e-09,6.801486373887301e-06,2.006738502604092e-09,7.265362337355953e-06
2.011420380861373e-09,0.1142038086137293,2.011420380861373e-09,0,2.011420380861373e-09,0,2.011420380861373e-09,0,2.011420380861373e-09,0.1142038086137293,2.011420380861373e-09,0.1142038086137293,2.011420380861373e-09,0.1142038086137293,2.011420380861373e-09,0.1142038086137293,2.011420380861373e-09,-4.950311451923928e-06,2.011420380861373e-09,-3.101589989903703e-06,2.011420380861373e-09,-3.115383786640488e-06,2.011420380861373e-09,-4.149660857022538e-06,2.011420380861373e-09,0.1142038086137293,2.011420380861373e-09,0,2.011420380861373e-09,0,2.011420380861373e-09,0,2.011420380861373e-09,0.1142038086137293,2.011420380861373e-09,0.1142038086137293,2.011420380861373e-09,0.1142038086137293,2.011420380861373e-09,0.1142038086137293,2.011420380861373e-09,5.856413631697742e-08,2.011420380861373e-09,-5.428520345708195e-06,2.011420380861373e-09,-3.101513409644242e-06,2.011420380861373e-09,-3.115382812089665e-06,2.011420380861373e-09,-4.149604571055657e-06
2.018298069837453e-09,0.1829806983745332,2.018298069837453e-09,0,2.018298069837453e-09,0,2.018298069837453e-09,0,2.018298069837453e-09,0.1829806983745332,2.018298069837453e-09,0.1829806983745332,2.018298069837453e-09,0.1829806983745332,2.018298069837453e-09,0.1829806983745332,2.018298069837453e-09,-4.351524431602236e-06,2.018298069837453e-09,-3.200719113936394e-06,2.018298069837453e-09,-3.226131075737215e-06,2.018298069837453e-09,-4.058601804657704e-06,2.018298069837453e-09,0.1829806983745332,2.018298069837453e-09,0,2.018298069837453e-09,0,2.018298069837453e-09,0,2.018298069837453e-09,0.1829806983745332,2.018298069837453e-09,0.1829806983745332,2.018298069837453e-09,0.1829806983745332,2.018298069837453e-09,0.1829806983745332,2.018298069837453e-09,5.115828996404558e-08,2.018298069837453e-09,-4.508097763446603e-06,2.018298069837453e-09,-3.20073096873426e-06,2.018298069837453e-09,-3.226131841885979e-06,2.018298069837453e-09,-4.058605811547683e-06
2.029326561747328e-09,0.2932656174732795,2.029326561747328e-09,0,2.029326561747328e-09,0,2.029326561747328e-09,0,2.029326561747328e-09,0.2932656174732795,2.029326561747328e-09,0.2932656174732795,2.029326561747328e-09,0.2932656174732795,2.029326561747328e-09,0.2932656174732795,2.029326561747328e-09,-2.130072218585843e-06,2.029326561747328e-09,-2.089154328207846e-06,2.029326561747328e-09,-2.342754243909441e-06,2.029326561747328e-09,-2.564907763143576e-06,2.029326561747328e-09,0.2932656174732795,2.029326561747328e-09,0,2.029326561747328e-09,0,2.029326561747328e-09,0,2.029326561747328e-09,0.2932656174732795,2.029326561747328e-09,0.2932656174732795,2.029326561747328e-09,0.2932656174732795,2.029326561747328e-09,0.2932656174732795,2.029326561747328e-09,5.346480828277658e-08,2.029326561747328e-09,-2.205214290339783e-06,2.029326561747328e-09,-2.089169540807981e-06,2.029326561747328e-09,-2.342753910196566e-06,2.029326561747328e-09,-2.564923934029393e-06
2.046526560126946e-09,0.4652656012694595,2.046526560126946e-09,0,2.046526560126946e-09,0,2.046526560126946e-09,0,2.046526560126946e-09,0.4652656012694595,2.046526560126946e-09,0.4652656012694595,2.046526560126946e-09,0.4652656012694595,2.046526560126946e-09,0.4652656012694595,2.046526560126946e-09,2.94427133484027e-06,2.046526560126946e-09,1.852508868940769e-06,2.046526560126946e-09,2.217130158247935e-06,2.046526560126946e-09,2.769611887265129e-06,2.046526560126946e-09,0.4652656012694595,2.046526560126946e-09,0,2.046526560126946e-09,0,2.046526560126946e-09,0,2.046526560126946e-09,0.4652656012694595,2.046526560126946e-09,0.4652656012694595,2.046526560126946e-09,0.4652656012694595,2.046526560126946e-09,0.4652656012694595,2.046526560126946e-09,5.401106207583166e-08,2.046526560126946e-09,3.103707752838783e-06,2.046526560126946e-09,1.852526899730934e-06,2.046526560126946e-09,2.217130067801088e-06,2.046526560126946e-09,2.769628854041129e-06
