/a X,/a Y,/b X,/b Y,/Cin X,/Cin Y,/G X,/G Y,/P X,/P Y,/S X,/S Y,/Cout X,/Cout Y
0,0,0,0,0,0,0,1.03575853849101e-07,0,2.460760837838041e-07,0,1.188898309162359e-07,0,5.339800133562858e-08
5.859375e-14,0.000390625,5.859375e-14,0,5.859375e-14,0,5.859375e-14,4.472366004667207e-06,5.859375e-14,5.209357798886799e-06,5.859375e-14,2.462625601366686e-07,5.859375e-14,3.681305456664025e-07
1.7578125e-13,0.001171875,1.7578125e-13,0,1.7578125e-13,0,1.7578125e-13,1.405678795148634e-05,1.7578125e-13,1.687875089743486e-05,1.7578125e-13,5.440392774266778e-07,1.7578125e-13,1.04446312717589e-06
4.1015625e-13,0.002734375,4.1015625e-13,0,4.1015625e-13,0,4.1015625e-13,3.074776838687708e-05,4.1015625e-13,3.800278597207247e-05,4.1015625e-13,1.052105684268715e-06,4.1015625e-13,2.112051721865705e-06
8.7890625e-13,0.005859375,8.7890625e-13,0,8.7890625e-13,0,8.7890625e-13,5.550391332987764e-05,8.7890625e-13,7.493463631296213e-05,8.7890625e-13,1.762258641872578e-06,8.7890625e-13,3.139367263305868e-06
1.81640625e-12,0.012109375,1.81640625e-12,0,1.81640625e-12,0,1.81640625e-12,8.063467208080342e-05,1.81640625e-12,0.000129774121749666,1.81640625e-12,2.27613464454172e-06,1.81640625e-12,2.80763956203464e-06
3.69140625e-12,0.024609375,3.69140625e-12,0,3.69140625e-12,0,3.69140625e-12,9.091664379450811e-05,3.69140625e-12,0.0001842641221699274,3.69140625e-12,1.514834121317098e-06,3.69140625e-12,3.690706959114944e-07
7.44140625e-12,0.049609375,7.44140625e-12,0,7.44140625e-12,0,7.44140625e-12,3.806903452825245e-05,7.44140625e-12,0.0001872359716759781,7.44140625e-12,-6.747195184294571e-07,7.44140625e-12,-2.526595488476852e-06
1.313944597077974e-11,0.08759630647186492,1.313944597077974e-11,0,1.313944597077974e-11,0,1.313944597077974e-11,2.104892927438213e-06,1.313944597077974e-11,0.0001268712361682887,1.313944597077974e-11,-1.048080285050491e-06,1.313944597077974e-11,1.725738212409678e-07
2.178297336488669e-11,0.1452198224325779,2.178297336488669e-11,0,2.178297336488669e-11,0,2.178297336488669e-11,9.397989563172329e-06,2.178297336488669e-11,6.901283145453738e-05,2.178297336488669e-11,2.337555411011651e-07,2.178297336488669e-11,6.146380416472241e-07
3.670435170736291e-11,0.2446956780490861,3.670435170736291e-11,0,3.670435170736291e-11,0,3.670435170736291e-11,9.403783554752065e-07,3.670435170736291e-11,6.228400960816153e-05,3.670435170736291e-11,3.596428458056446e-07,3.670435170736291e-11,-3.538001551657903e-07
6.26826656185657e-11,0.4178844374571047,6.26826656185657e-11,0,6.26826656185657e-11,0,6.26826656185657e-11,5.206171499516917e-06,6.26826656185657e-11,0.000100676761270223,6.26826656185657e-11,-3.564165673351999e-09,6.26826656185657e-11,4.300912968321846e-07
6.950147853897112e-11,0.4633431902598075,6.950147853897112e-11,0,6.950147853897112e-11,0,6.950147853897112e-11,-9.022185927493973e-06,6.950147853897112e-11,2.757622824911843e-05,6.950147853897112e-11,-5.436563781156896e-07,6.950147853897112e-11,-3.732113233389019e-07
8.313910437978194e-11,0.554260695865213,8.313910437978194e-11,0,8.313910437978194e-11,0,8.313910437978194e-11,-8.379568563946657e-06,8.313910437978194e-11,-0.0009341564969941952,8.313910437978194e-11,-2.707010232803591e-06,8.313910437978194e-11,4.555605965337435e-07
9.42882253473036e-11,0.628588168982024,9.42882253473036e-11,0,9.42882253473036e-11,0,9.42882253473036e-11,-6.242688237426228e-06,9.42882253473036e-11,-0.003557943276357389,9.42882253473036e-11,-7.051360073444593e-06,9.42882253473036e-11,-1.587225390432876e-07
1.036795656008871e-10,0.6911971040059141,1.036795656008871e-10,0,1.036795656008871e-10,0,1.036795656008871e-10,-1.723831584704937e-06,1.036795656008871e-10,-0.007981447236259272,1.036795656008871e-10,-1.021833935515651e-05,1.036795656008871e-10,1.898886819339913e-07
1.112631946935506e-10,0.7417546312903374,1.112631946935506e-10,0,1.112631946935506e-10,0,1.112631946935506e-10,-8.100420146073794e-07,1.112631946935506e-10,-0.01392706426756973,1.112631946935506e-10,-1.545988083114244e-05,1.112631946935506e-10,-4.191108297335586e-08
1.192050554549147e-10,0.7947003696994315,1.192050554549147e-10,0,1.192050554549147e-10,0,1.192050554549147e-10,-1.204433505039989e-07,1.192050554549147e-10,-0.02323058158252141,1.192050554549147e-10,-1.996218572302234e-05,1.192050554549147e-10,8.187497866253191e-08
1.21817071690318e-10,0.8121138112687868,1.21817071690318e-10,0,1.21817071690318e-10,0,1.21817071690318e-10,1.20251404495672e-07,1.21817071690318e-10,-0.02623587665844497,1.21817071690318e-10,-8.304441777082168e-06,1.21817071690318e-10,1.047004730003181e-07
1.239509845380884e-10,0.8263398969205895,1.239509845380884e-10,0,1.239509845380884e-10,0,1.239509845380884e-10,5.67458371978928e-08,1.239509845380884e-10,-0.02826303671829911,1.239509845380884e-10,3.361912171109897e-06,1.239509845380884e-10,9.436410102315848e-08
1.262262690325354e-10,0.8415084602169024,1.262262690325354e-10,0,1.262262690325354e-10,0,1.262262690325354e-10,-1.255162441181866e-07,1.262262690325354e-10,-0.03000681371508182,1.262262690325354e-10,1.383603515184999e-05,1.262262690325354e-10,5.686030574437368e-08
1.287918066132326e-10,0.8586120440882173,1.287918066132326e-10,0,1.287918066132326e-10,0,1.287918066132326e-10,-2.233726889444704e-07,1.287918066132326e-10,-0.03132762472665564,1.287918066132326e-10,2.394375295673287e-05,1.287918066132326e-10,5.279773108591701e-08
1.301971220709489e-10,0.8679808138063263,1.301971220709489e-10,0,1.301971220709489e-10,0,1.301971220709489e-10,1.005435860350791e-07,1.301971220709489e-10,-0.0306142818194114,1.301971220709489e-10,4.950636170075211e-05,1.301971220709489e-10,1.848314625664874e-07
1.318957740023836e-10,0.8793051600158909,1.318957740023836e-10,0,1.318957740023836e-10,0,1.318957740023836e-10,1.9466471674488e-06,1.318957740023836e-10,-0.02201708189357756,1.318957740023836e-10,0.0002164973332148673,1.318957740023836e-10,9.490153105305803e-07
1.332557790517524e-10,0.8883718603450159,1.332557790517524e-10,0,1.332557790517524e-10,0,1.332557790517524e-10,4.329071248038203e-06,1.332557790517524e-10,-0.004974410340941169,1.332557790517524e-10,0.0004762078520472318,1.332557790517524e-10,1.884936866789349e-06
1.353449549449201e-10,0.9022996996328005,1.353449549449201e-10,0,1.353449549449201e-10,0,1.353449549449201e-10,3.392234624658751e-06,1.353449549449201e-10,0.03711880084828569,1.353449549449201e-10,0.0008703067070128233,1.353449549449201e-10,1.390777708777965e-06
1.375609957309122e-10,0.917073304872748,1.375609957309122e-10,0,1.375609957309122e-10,0,1.375609957309122e-10,-3.638183088112182e-07,1.375609957309122e-10,0.09458628017895759,1.375609957309122e-10,0.001098513212353804,1.375609957309122e-10,-2.196647968970356e-07
1.394312604561149e-10,0.9295417363740994,1.394312604561149e-10,0,1.394312604561149e-10,0,1.394312604561149e-10,-2.935897318479016e-06,1.394312604561149e-10,0.1481061207238108,1.394312604561149e-10,0.001146720043415258,1.394312604561149e-10,-1.178842200800892e-06
1.415554870967047e-10,0.9437032473113649,1.415554870967047e-10,0,1.415554870967047e-10,0,1.415554870967047e-10,-3.657998191520831e-06,1.415554870967047e-10,0.2117731247941261,1.415554870967047e-10,0.00115761167373067,1.415554870967047e-10,-1.29907795634767e-06
1.444082120231676e-10,0.9627214134877842,1.444082120231676e-10,0,1.444082120231676e-10,0,1.444082120231676e-10,-2.714252160380506e-06,1.444082120231676e-10,0.3003562063324926,1.444082120231676e-10,0.001248724600719801,1.444082120231676e-10,-7.246710612637038e-07
1.472041060115838e-10,0.9813607067438921,1.472041060115838e-10,0,1.472041060115838e-10,0,1.472041060115838e-10,-1.771935596179034e-06,1.472041060115838e-10,0.3898190472779202,1.472041060115838e-10,0.001500580204574707,1.472041060115838e-10,-3.113183333706423e-07
1.5e-10,1,1.5e-10,0,1.5e-10,0,1.5e-10,-2.362507208857722e-06,1.5e-10,0.4807057363733283,1.5e-10,0.001730232675749952,1.5e-10,-5.71298161199583e-07
1.500206813942688e-10,1,1.500206813942688e-10,0,1.500206813942688e-10,0,1.500206813942688e-10,-3.298945239731001e-06,1.500206813942688e-10,0.4813770518908301,1.500206813942688e-10,0.001730511422600948,1.500206813942688e-10,-6.417099181584573e-07
1.500620441828064e-10,1,1.500620441828064e-10,0,1.500620441828064e-10,0,1.500620441828064e-10,-5.270283109514455e-06,1.500620441828064e-10,0.4827192745843664,1.500620441828064e-10,0.001731002426535005,1.500620441828064e-10,-8.017819802114399e-07
1.501447697598816e-10,1,1.501447697598816e-10,0,1.501447697598816e-10,0,1.501447697598816e-10,-9.062017257243292e-06,1.501447697598816e-10,0.485402503405624,1.501447697598816e-10,0.001731443417194216,1.501447697598816e-10,-1.107704623163293e-06
1.501861325484192e-10,1,1.501861325484192e-10,0,1.501861325484192e-10,0,1.501861325484192e-10,-1.087591151994905e-05,1.501861325484192e-10,0.4867433697169535,1.501861325484192e-10,0.001731387130842268,1.501861325484192e-10,-1.243362835300465e-06
1.502688581254945e-10,1,1.502688581254945e-10,0,1.502688581254945e-10,0,1.502688581254945e-10,-1.436973370159991e-05,1.502688581254945e-10,0.4894237148898548,1.502688581254945e-10,0.001730701114257054,1.502688581254945e-10,-1.499048535630177e-06
1.504343092796449e-10,1,1.504343092796449e-10,0,1.504343092796449e-10,0,1.504343092796449e-10,-2.078497188521846e-05,1.504343092796449e-10,0.4947781243947864,1.504343092796449e-10,0.001726931708931966,1.504343092796449e-10,-1.91811866830052e-06
1.507652115879458e-10,1,1.507652115879458e-10,0,1.507652115879458e-10,0,1.507652115879458e-10,-3.161677503747221e-05,1.507652115879458e-10,0.5054590139298484,1.507652115879458e-10,0.001708929246241664,1.507652115879458e-10,-2.477594167731138e-06
1.509306627420962e-10,1,1.509306627420962e-10,0,1.509306627420962e-10,0,1.509306627420962e-10,-3.609890263578047e-05,1.509306627420962e-10,0.5107838946226902,1.509306627420962e-10,0.001694314849364595,1.509306627420962e-10,-2.633408641610521e-06
1.512615650503971e-10,1,1.512615650503971e-10,0,1.512615650503971e-10,0,1.512615650503971e-10,-4.351836543662875e-05,1.512615650503971e-10,0.5213973414481657,1.512615650503971e-10,0.001652388113674729,1.512615650503971e-10,-2.77749429717622e-06
1.519233696669988e-10,1,1.519233696669988e-10,0,1.519233696669988e-10,0,1.519233696669988e-10,-5.325277703102615e-05,1.519233696669988e-10,0.5424494409191694,1.519233696669988e-10,0.001509926481960902,1.519233696669988e-10,-2.602370238264121e-06
1.532469789002023e-10,1,1.532469789002023e-10,0,1.532469789002023e-10,0,1.532469789002023e-10,-5.913042798444962e-05,1.532469789002023e-10,0.5836049277107932,1.532469789002023e-10,0.0009272357431605077,1.532469789002023e-10,-1.495016208438566e-06
1.5585381101165e-10,1,1.5585381101165e-10,0,1.5585381101165e-10,0,1.5585381101165e-10,-5.018268391252829e-05,1.5585381101165e-10,0.6590011590996802,1.5585381101165e-10,-0.001881638550686306,1.5585381101165e-10,4.479511227370651e-07
1.584976790419223e-10,1,1.584976790419223e-10,0,1.584976790419223e-10,0,1.584976790419223e-10,-2.782276794877838e-05,1.584976790419223e-10,0.7251060436193326,1.584976790419223e-10,-0.00719079821537643,1.584976790419223e-10,1.744224075722871e-06
1.614446327392718e-10,1,1.614446327392718e-10,0,1.614446327392718e-10,0,1.614446327392718e-10,-1.297348788382442e-05,1.614446327392718e-10,0.7847818786120531,1.614446327392718e-10,-0.01516318923512923,1.614446327392718e-10,1.356708134492932e-06
1.635980411408885e-10,1,1.635980411408885e-10,0,1.635980411408885e-10,0,1.635980411408885e-10,-7.163899750756912e-06,1.635980411408885e-10,0.8198371725839644,1.635980411408885e-10,-0.02178461427220957,1.635980411408885e-10,9.339217929656202e-07
1.670897740135722e-10,1,1.670897740135722e-10,0,1.670897740135722e-10,0,1.670897740135722e-10,-2.442439118865744e-06,1.670897740135722e-10,0.8642861745272774,1.670897740135722e-10,-0.03432005105226493,1.670897740135722e-10,4.787104882017449e-07
1.706321009218477e-10,1,1.706321009218477e-10,0,1.706321009218477e-10,0,1.706321009218477e-10,-6.894329688909452e-07,1.706321009218477e-10,0.8973117256513407,1.706321009218477e-10,-0.05211303071379062,1.706321009218477e-10,2.447190108663311e-07
1.724256945305729e-10,1,1.724256945305729e-10,0,1.724256945305729e-10,0,1.724256945305729e-10,-3.434904505003435e-07,1.724256945305729e-10,0.9106418439153811,1.724256945305729e-10,-0.06204392362463781,1.724256945305729e-10,1.852546912154725e-07
1.740024791721295e-10,1,1.740024791721295e-10,0,1.740024791721295e-10,0,1.740024791721295e-10,-4.873088141573548e-08,1.740024791721295e-10,0.9209827805039559,1.740024791721295e-10,-0.06932794012593395,1.740024791721295e-10,1.786873537522133e-07
1.756023565571145e-10,1,1.756023565571145e-10,0,1.756023565571145e-10,0,1.756023565571145e-10,-1.30872362630922e-07,1.756023565571145e-10,0.9303572050484832,1.756023565571145e-10,-0.07503243563748049,1.756023565571145e-10,8.850380706054726e-08
1.773855398455846e-10,1,1.773855398455846e-10,0,1.773855398455846e-10,0,1.773855398455846e-10,-1.687247017998912e-07,1.773855398455846e-10,0.9396393967249436,1.773855398455846e-10,-0.07974523646685441,1.773855398455846e-10,1.995065672107609e-08
1.786512320570929e-10,1,1.786512320570929e-10,0,1.786512320570929e-10,0,1.786512320570929e-10,-1.991334188574497e-07,1.786512320570929e-10,0.9455308408686927,1.786512320570929e-10,-0.08188890398177801,1.786512320570929e-10,-7.680754134382717e-09
1.802464904123172e-10,1,1.802464904123172e-10,0,1.802464904123172e-10,0,1.802464904123172e-10,-2.424783800861388e-07,1.802464904123172e-10,0.9521471618821172,1.802464904123172e-10,-0.07521496973161017,1.802464904123172e-10,-4.420224587601313e-08
1.813854154299074e-10,1,1.813854154299074e-10,0,1.813854154299074e-10,0,1.813854154299074e-10,-2.602794901839557e-07,1.813854154299074e-10,0.956350964222366,1.813854154299074e-10,-0.05275083998661131,1.813854154299074e-10,-5.282563330641107e-08
1.826510769646727e-10,1,1.826510769646727e-10,0,1.826510769646727e-10,0,1.826510769646727e-10,-2.523307530761965e-07,1.826510769646727e-10,0.9605972536896501,1.826510769646727e-10,-0.001537389847390533,1.826510769646727e-10,-5.839681302443186e-08
1.841904936244616e-10,1,1.841904936244616e-10,0,1.841904936244616e-10,0,1.841904936244616e-10,-2.198052292150066e-07,1.841904936244616e-10,0.9652567424038401,1.841904936244616e-10,0.08922179447760197,1.841904936244616e-10,-4.450212581740998e-08
1.857218721990557e-10,1,1.857218721990557e-10,0,1.857218721990557e-10,0,1.857218721990557e-10,-1.842423758114893e-07,1.857218721990557e-10,0.9694189428128537,1.857218721990557e-10,0.1965091487728477,1.857218721990557e-10,-3.734121290427151e-08
1.872465501614095e-10,1,1.872465501614095e-10,0,1.872465501614095e-10,0,1.872465501614095e-10,-1.59270760770191e-07,1.872465501614095e-10,0.9731415526120802,1.872465501614095e-10,0.3100393606319158,1.872465501614095e-10,-2.548716097331806e-08
1.890314885582326e-10,1,1.890314885582326e-10,0,1.890314885582326e-10,0,1.890314885582326e-10,-1.414652043291684e-07,1.890314885582326e-10,0.9770070574919661,1.890314885582326e-10,0.4434877746366657,1.890314885582326e-10,-2.527871818549568e-08
1.911615648621283e-10,1,1.911615648621283e-10,0,1.911615648621283e-10,0,1.911615648621283e-10,-1.253177387539576e-07,1.911615648621283e-10,0.9809750550836406,1.911615648621283e-10,0.5948048299759745,1.911615648621283e-10,-1.710663448377588e-08
1.935754362285732e-10,1,1.935754362285732e-10,0,1.935754362285732e-10,0,1.935754362285732e-10,-1.01605592227003e-07,1.935754362285732e-10,0.9847076911648845,1.935754362285732e-10,0.7374592868301293,1.935754362285732e-10,-1.410965762132892e-08
1.957431910094848e-10,1,1.957431910094848e-10,0,1.957431910094848e-10,0,1.957431910094848e-10,-7.491860323422285e-08,1.957431910094848e-10,0.9874428990032365,1.957431910094848e-10,0.8232894724510038,1.957431910094848e-10,-9.407692933917418e-10
1.979751777432783e-10,1,1.979751777432783e-10,0,1.979751777432783e-10,0,1.979751777432783e-10,-4.38972265562748e-08,1.979751777432783e-10,0.9897386864540938,1.979751777432783e-10,0.878648477397005,1.979751777432783e-10,5.417353276641904e-09
2.006967322330225e-10,1,2.006967322330225e-10,0,2.006967322330225e-10,0,2.006967322330225e-10,-6.998874411293006e-09,2.006967322330225e-10,0.9919584858117797,2.006967322330225e-10,0.9222439490528895,2.006967322330225e-10,2.196799059768418e-08
2.029924276849366e-10,1,2.029924276849366e-10,0,2.029924276849366e-10,0,2.029924276849366e-10,1.91852090224811e-08,2.029924276849366e-10,0.9934407451194136,2.029924276849366e-10,0.946488110774904,2.029924276849366e-10,2.625526973478922e-08
2.060485757500492e-10,1,2.060485757500492e-10,0,2.060485757500492e-10,0,2.060485757500492e-10,4.060981361649195e-08,2.060485757500492e-10,0.9949975257358398,2.060485757500492e-10,0.9675034776069441,2.060485757500492e-10,3.669279829000024e-08
2.09841264341937e-10,1,2.09841264341937e-10,0,2.09841264341937e-10,0,2.09841264341937e-10,5.435787787136165e-08,2.09841264341937e-10,0.9964346520652149,2.09841264341937e-10,0.9825888983017473,2.09841264341937e-10,3.612232282801544e-08
2.14373332347047e-10,1,2.14373332347047e-10,0,2.14373332347047e-10,0,2.14373332347047e-10,6.341743503490043e-08,2.14373332347047e-10,0.9976344445673281,2.14373332347047e-10,0.9918262541768843,2.14373332347047e-10,4.266562126833791e-08
2.198179406691225e-10,1,2.198179406691225e-10,0,2.198179406691225e-10,0,2.198179406691225e-10,7.394931865645956e-08,2.198179406691225e-10,0.9985722554122319,2.198179406691225e-10,0.9967701596569268,2.198179406691225e-10,4.195872313312939e-08
2.26589839050653e-10,1,2.26589839050653e-10,0,2.26589839050653e-10,0,2.26589839050653e-10,8.554291302030488e-08,2.26589839050653e-10,0.9992522967935753,2.26589839050653e-10,0.9990308774852161,2.26589839050653e-10,4.987466700140052e-08
2.353921878810624e-10,1,2.353921878810624e-10,0,2.353921878810624e-10,0,2.353921878810624e-10,9.557482069938375e-08,2.353921878810624e-10,0.9996894083663362,2.353921878810624e-10,0.9998289874566347,2.353921878810624e-10,4.893440027742447e-08
2.475731506561944e-10,1,2.475731506561944e-10,0,2.475731506561944e-10,0,2.475731506561944e-10,1.022483103440853e-07,2.475731506561944e-10,0.9999170076644104,2.475731506561944e-10,0.9999976497898806,2.475731506561944e-10,5.509502493419301e-08
2.660105463440473e-10,1,2.660105463440473e-10,0,2.660105463440473e-10,0,2.660105463440473e-10,1.017969533822712e-07,2.660105463440473e-10,0.9999951969786441,2.660105463440473e-10,1.000001182529556,2.660105463440473e-10,5.070887871583136e-08
2.981155841334024e-10,1,2.981155841334024e-10,0,2.981155841334024e-10,0,2.981155841334024e-10,1.042976600842731e-07,2.981155841334024e-10,1.000001292533862,2.981155841334024e-10,0.9999999444279691,2.981155841334024e-10,5.574911385024421e-08
3.623256597121127e-10,1,3.623256597121127e-10,0,3.623256597121127e-10,0,3.623256597121127e-10,1.031628023196921e-07,3.623256597121127e-10,0.9999998697127903,3.623256597121127e-10,1.000001030521603,3.623256597121127e-10,5.115554420912498e-08
4.907458108695332e-10,1,4.907458108695332e-10,0,4.907458108695332e-10,0,4.907458108695332e-10,1.038653223375963e-07,4.907458108695332e-10,1.000000588935915,4.907458108695332e-10,0.9999999881325335,4.907458108695332e-10,5.559669144012074e-08
7.475861131843743e-10,1,7.475861131843743e-10,0,7.475861131843743e-10,0,7.475861131843743e-10,1.033358956094976e-07,7.475861131843743e-10,1.000000091081193,7.475861131843743e-10,1.000001007300067,7.475861131843743e-10,5.121891849614756e-08
1.261266717814057e-09,1,1.261266717814057e-09,0,1.261266717814057e-09,0,1.261266717814057e-09,1.037879454744236e-07,1.261266717814057e-09,1.000000501907659,1.261266717814057e-09,0.9999999858499717,1.261266717814057e-09,5.556780862584433e-08
2.288627927073421e-09,1,2.288627927073421e-09,0,2.288627927073421e-09,0,2.288627927073421e-09,1.033724651757748e-07,2.288627927073421e-09,1.000000135580892,2.288627927073421e-09,1.000000983583414,2.288627927073421e-09,5.123270374384676e-08
3.488627927073421e-09,1,3.488627927073421e-09,0,3.488627927073421e-09,0,3.488627927073421e-09,1.037660374108197e-07,3.488627927073421e-09,1.00000048461544,3.488627927073421e-09,0.9999999597869994,3.488627927073421e-09,5.55595033435571e-08
