/a X,/a Y,/b X,/b Y,/output X,/output Y
0,0,0,0,0,5.339800128353784e-08
5.859375e-14,0.000390625,5.859375e-14,0,5.859375e-14,7.779322508175779e-06
1.7578125e-13,0.001171875,1.7578125e-13,0,1.7578125e-13,2.574328045353206e-05
4.1015625e-13,0.002734375,4.1015625e-13,0,4.1015625e-13,5.766941359548492e-05
8.7890625e-13,0.005859375,8.7890625e-13,0,8.7890625e-13,0.0001099828558048747
1.81640625e-12,0.012109375,1.81640625e-12,0,1.81640625e-12,0.0001762995736888081
3.69140625e-12,0.024609375,3.69140625e-12,0,3.69140625e-12,0.0002128517433367285
7.44140625e-12,0.049609375,7.44140625e-12,0,7.44140625e-12,0.0001669295000834271
1.392590570958199e-11,0.09283937139721325,1.392590570958199e-11,0,1.392590570958199e-11,5.239667517748805e-05
1.662208165303495e-11,0.1108138776868997,1.662208165303495e-11,0,1.662208165303495e-11,4.57372474825529e-05
2.201443353994088e-11,0.1467628902662725,2.201443353994088e-11,0,2.201443353994088e-11,4.15578182130728e-05
2.471060948339385e-11,0.164737396555959,2.471060948339385e-11,0,2.471060948339385e-11,3.143834070332457e-05
3.010296137029977e-11,0.2006864091353318,3.010296137029977e-11,0,3.010296137029977e-11,3.715766087156905e-05
3.279913731375273e-11,0.2186609154250182,3.279913731375273e-11,0,3.279913731375273e-11,3.939307351180066e-05
3.819148920065866e-11,0.254609928004391,3.819148920065866e-11,0,3.819148920065866e-11,4.710189185538492e-05
4.89761929744705e-11,0.3265079531631367,4.89761929744705e-11,0,4.89761929744705e-11,6.876918887246723e-05
7.05456005220942e-11,0.470304003480628,7.05456005220942e-11,0,7.05456005220942e-11,2.856110839385215e-05
8.107542318496071e-11,0.5405028212330714,8.107542318496071e-11,0,8.107542318496071e-11,-0.0003145445714239622
9.138359820107335e-11,0.6092239880071556,9.138359820107335e-11,0,9.138359820107335e-11,-0.001270388840387426
1.041096097112659e-10,0.6940640647417724,1.041096097112659e-10,0,1.041096097112659e-10,-0.004195721786648465
1.141340997455236e-10,0.7608939983034907,1.141340997455236e-10,0,1.141340997455236e-10,-0.009681149466445767
1.238963123366869e-10,0.8259754155779128,1.238963123366869e-10,0,1.238963123366869e-10,-0.03014556192709284
1.316377026060434e-10,0.8775846840402892,1.316377026060434e-10,0,1.316377026060434e-10,-0.00419118741818973
1.335727489621595e-10,0.8904849930810635,1.335727489621595e-10,0,1.335727489621595e-10,0.05156979757968622
1.352359265001321e-10,0.9015728433342137,1.352359265001321e-10,0,1.352359265001321e-10,0.1501525471295863
1.369130740065835e-10,0.9127538267105564,1.369130740065835e-10,0,1.369130740065835e-10,0.2945747828661555
1.384073622994678e-10,0.9227157486631188,1.384073622994678e-10,0,1.384073622994678e-10,0.4524142295669362
1.402482162496176e-10,0.9349881083307838,1.402482162496176e-10,0,1.402482162496176e-10,0.6648393296786607
1.418047070340794e-10,0.9453647135605293,1.418047070340794e-10,0,1.418047070340794e-10,0.8309168975476232
1.430979891721092e-10,0.9539865944807278,1.430979891721092e-10,0,1.430979891721092e-10,0.917766674565322
1.440999063597334e-10,0.9606660423982226,1.440999063597334e-10,0,1.440999063597334e-10,0.9473088644574861
1.450102218433876e-10,0.9667348122892507,1.450102218433876e-10,0,1.450102218433876e-10,0.961851397013622
1.459508445049943e-10,0.9730056300332955,1.459508445049943e-10,0,1.459508445049943e-10,0.9717665090035291
1.471388126687301e-10,0.9809254177915341,1.471388126687301e-10,0,1.471388126687301e-10,0.9799060428587819
1.485694063343651e-10,0.990462708895767,1.485694063343651e-10,0,1.485694063343651e-10,0.9861779628587577
1.5e-10,1,1.5e-10,0,1.5e-10,0.990241203911405
1.500111765130128e-10,1,1.500111765130128e-10,0,1.500111765130128e-10,0.9902649431944568
1.500335295390383e-10,1,1.500335295390383e-10,0,1.500335295390383e-10,0.9903124196357738
1.500782355910894e-10,1,1.500782355910894e-10,0,1.500782355910894e-10,0.9904069070270031
1.50100588617115e-10,1,1.50100588617115e-10,0,1.50100588617115e-10,0.9904537698292335
1.501452946691661e-10,1,1.501452946691661e-10,0,1.501452946691661e-10,0.9905468864368734
1.502347067732683e-10,1,1.502347067732683e-10,0,1.502347067732683e-10,0.9907304947692602
1.504135309814728e-10,1,1.504135309814728e-10,0,1.504135309814728e-10,0.9910874356799405
1.507711793978817e-10,1,1.507711793978817e-10,0,1.507711793978817e-10,0.9917619215943269
1.514864762306995e-10,1,1.514864762306995e-10,0,1.514864762306995e-10,0.9929658059071553
1.529170698963351e-10,1,1.529170698963351e-10,0,1.529170698963351e-10,0.9948841432860343
1.557782572276062e-10,1,1.557782572276062e-10,0,1.557782572276062e-10,0.9973318587574498
1.597352479245049e-10,1,1.597352479245049e-10,0,1.597352479245049e-10,0.9989274746530445
1.643774393482495e-10,1,1.643774393482495e-10,0,1.643774393482495e-10,0.9996243830288044
1.699279231717682e-10,1,1.699279231717682e-10,0,1.699279231717682e-10,0.9998719720860919
1.772419960930501e-10,1,1.772419960930501e-10,0,1.772419960930501e-10,0.9999531547143315
1.876433377866421e-10,1,1.876433377866421e-10,0,1.876433377866421e-10,0.9999750878180999
2.051644911226541e-10,1,2.051644911226541e-10,0,2.051644911226541e-10,0.9999870666236862
2.302408841935544e-10,1,2.302408841935544e-10,0,2.302408841935544e-10,0.9999940120939228
2.629012295461512e-10,1,2.629012295461512e-10,0,2.629012295461512e-10,0.9999965718049595
3.052788925796052e-10,1,3.052788925796052e-10,0,3.052788925796052e-10,0.9999984988677649
3.61691389633597e-10,1,3.61691389633597e-10,0,3.61691389633597e-10,0.9999988650167468
4.376991617408897e-10,1,4.376991617408897e-10,0,4.376991617408897e-10,0.9999996791554798
5.40196470253778e-10,1,5.40196470253778e-10,0,5.40196470253778e-10,0.9999995594995144
6.782753225680302e-10,1,6.782753225680302e-10,0,6.782753225680302e-10,1.000000004414084
8.648475743360848e-10,1,8.648475743360848e-10,0,8.648475743360848e-10,0.9999997614799707
1.117748503183687e-09,1,1.117748503183687e-09,0,1.117748503183687e-09,1.000000090670859
1.46198900218799e-09,1,1.46198900218799e-09,0,1.46198900218799e-09,0.9999998219157371
1.931648512575392e-09,1,1.931648512575392e-09,0,1.931648512575392e-09,1.000000112247652
2.574576426874789e-09,1,2.574576426874789e-09,0,2.574576426874789e-09,0.999999840889167
3.456330212680738e-09,1,3.456330212680738e-09,0,3.456330212680738e-09,1.000000116935796
4.228165106340369e-09,1,4.228165106340369e-09,0,4.228165106340369e-09,0.9999998473418127
5e-09,1,5e-09,0,5e-09,1.000000115743628
5.000390625e-09,1,5.000390625e-09,0.003906250000000293,5.000390625e-09,1.000089417041401
5.001171875e-09,1,5.001171875e-09,0.01171875000000088,5.001171875e-09,1.00022022177514
5.002734375e-09,1,5.002734375e-09,0.02734375000000205,5.002734375e-09,1.000352571223846
5.005859375000001e-09,1,5.005859375000001e-09,0.0585937500000044,5.005859375000001e-09,1.000181193138268
5.012109375000001e-09,1,5.012109375000001e-09,0.1210937500000091,5.012109375000001e-09,1.000020038391245
5.020908396595355e-09,1,5.020908396595355e-09,0.2090839659535478,5.020908396595355e-09,0.9999975237865908
5.034484030709967e-09,1,5.034484030709967e-09,0.3448403070996708,5.034484030709967e-09,0.9999987887570511
5.056065394840165e-09,1,5.056065394840165e-09,0.5606539484016477,5.056065394840165e-09,1.00000924754908
5.078032697420083e-09,1,5.078032697420083e-09,0.7803269742008283,5.078032697420083e-09,0.9999775915739143
5.1e-09,1,5.1e-09,1,5.1e-09,0.9999712452891931
5.100686478205623e-09,1,5.100686478205623e-09,1,5.100686478205623e-09,0.9998514397929115
5.102059434616868e-09,1,5.102059434616868e-09,1,5.102059434616868e-09,0.999728883300821
5.104805347439359e-09,1,5.104805347439359e-09,1,5.104805347439359e-09,0.9998234010881603
5.110297173084341e-09,1,5.110297173084341e-09,1,5.110297173084341e-09,0.9999975089465482
5.117200338670919e-09,1,5.117200338670919e-09,1,5.117200338670919e-09,1.000001057106367
5.128539706009724e-09,1,5.128539706009724e-09,1,5.128539706009724e-09,0.9999997140820209
5.151218440687334e-09,1,5.151218440687334e-09,1,5.151218440687334e-09,1.000000047293979
5.196575910042553e-09,1,5.196575910042553e-09,1,5.196575910042553e-09,0.9999999398257109
5.287290848752992e-09,1,5.287290848752992e-09,1,5.287290848752992e-09,0.9999999708368505
5.468720726173869e-09,1,5.468720726173869e-09,1,5.468720726173869e-09,0.9999999712680042
5.831580481015624e-09,1,5.831580481015624e-09,1,5.831580481015624e-09,0.999999956588848
6.557299990699134e-09,1,6.557299990699134e-09,1,6.557299990699134e-09,0.9999999780484049
7.499999999999999e-09,1,7.499999999999999e-09,1,7.499999999999999e-09,0.999999952697068
7.500585937499999e-09,0.9960937500000024,7.500585937499999e-09,1,7.500585937499999e-09,0.9999574474361287
7.501757812499998e-09,0.9882812500000074,7.501757812499998e-09,1,7.501757812499998e-09,0.9999121549755515
7.504101562499997e-09,0.9726562500000172,7.504101562499997e-09,1,7.504101562499997e-09,0.9999326112993708
7.508789062499994e-09,0.941406250000037,7.508789062499994e-09,1,7.508789062499994e-09,0.9999940152775401
7.517695293511311e-09,0.882031376591255,7.517695293511311e-09,1,7.517695293511311e-09,0.9999950696567868
7.532316595947689e-09,0.7845560270153996,7.532316595947689e-09,1,7.532316595947689e-09,0.9999977219894934
7.561559200820446e-09,0.589605327863689,7.561559200820446e-09,1,7.561559200820446e-09,0.9999966180941894
7.571489555942414e-09,0.5234029603838997,7.571489555942414e-09,1,7.571489555942414e-09,1.000010389806075
7.578691296411112e-09,0.4753913572592495,7.578691296411112e-09,1,7.578691296411112e-09,1.000006368645185
7.585601993384851e-09,0.4293200441009881,7.585601993384851e-09,1,7.585601993384851e-09,1.000008587605307
7.59289249943687e-09,0.3807166704208641,7.59289249943687e-09,1,7.59289249943687e-09,1.000006895727831
7.599535385645185e-09,0.3364307623654305,7.599535385645185e-09,1,7.599535385645185e-09,1.000005868749395
7.603697593217831e-09,0.3086827118811197,7.603697593217831e-09,1,7.603697593217831e-09,1.000004334555989
7.606588101829989e-09,0.2894126544667345,7.606588101829989e-09,1,7.606588101829989e-09,1.000004114365055
7.610116017385621e-09,0.2658932174291857,7.610116017385621e-09,1,7.610116017385621e-09,1.000002604227976
7.613024667190769e-09,0.2465022187282017,7.613024667190769e-09,1,7.613024667190769e-09,1.000002158462563
7.617320238915588e-09,0.2178650738960763,7.617320238915588e-09,1,7.617320238915588e-09,1.000001489699347
7.620652894120013e-09,0.1956473725332455,7.620652894120013e-09,1,7.620652894120013e-09,1.00000103227444
7.625369860660785e-09,0.1642009289280965,7.625369860660785e-09,1,7.625369860660785e-09,1.000000652221479
7.631407147435138e-09,0.1239523504324057,7.631407147435138e-09,1,7.631407147435138e-09,1.00000031849794
7.640724045130227e-09,0.06183969913181853,7.640724045130227e-09,1,7.640724045130227e-09,1.000000143780573
7.649999999999999e-09,0,7.649999999999999e-09,1,7.649999999999999e-09,1.000000111151589
7.650289873589679e-09,0,7.650289873589679e-09,1,7.650289873589679e-09,1.000013966334047
7.650434810384518e-09,0,7.650434810384518e-09,1,7.650434810384518e-09,1.000020412069032
7.650724683974198e-09,0,7.650724683974198e-09,1,7.650724683974198e-09,1.000030474735194
7.651304431153557e-09,0,7.651304431153557e-09,1,7.651304431153557e-09,1.000042204799824
7.652463925512275e-09,0,7.652463925512275e-09,1,7.652463925512275e-09,1.000046894008999
7.653043672691634e-09,0,7.653043672691634e-09,1,7.653043672691634e-09,1.000044022376918
7.654203167050353e-09,0,7.654203167050353e-09,1,7.654203167050353e-09,1.000036170642271
7.656522155767789e-09,0,7.656522155767789e-09,1,7.656522155767789e-09,1.000021325531216
7.661160133202662e-09,0,7.661160133202662e-09,1,7.661160133202662e-09,1.000005478118609
7.670238623043262e-09,0,7.670238623043262e-09,1,7.670238623043262e-09,0.9999995365846855
7.68444376664692e-09,0,7.68444376664692e-09,1,7.68444376664692e-09,1.000000103246997
7.71268014079853e-09,0,7.71268014079853e-09,1,7.71268014079853e-09,0.9999998887783358
7.769152889101749e-09,0,7.769152889101749e-09,1,7.769152889101749e-09,1.000000031617832
7.882098385708187e-09,0,7.882098385708187e-09,1,7.882098385708187e-09,0.9999999133762454
8.107989378921064e-09,0,8.107989378921064e-09,1,8.107989378921064e-09,1.000000021288957
8.559771365346819e-09,0,8.559771365346819e-09,1,8.559771365346819e-09,0.9999999181224176
9.279885682673409e-09,0,9.279885682673409e-09,1,9.279885682673409e-09,1.000000018824297
1e-08,0,1e-08,1,1e-08,0.9999999199725523
1.0000390625e-08,0,1.0000390625e-08,0.9960937499999997,1.0000390625e-08,0.9998740022467574
1.0001171875e-08,0,1.0001171875e-08,0.9882812499999826,1.0001171875e-08,0.9996904769606226
1.000273437500001e-08,0,1.000273437500001e-08,0.9726562499999483,1.000273437500001e-08,0.9995923102295936
1.000585937500001e-08,0,1.000585937500001e-08,0.9414062499998798,1.000585937500001e-08,0.9997091686043962
1.001025353914502e-08,0,1.001025353914502e-08,0.8974646085498081,1.001025353914502e-08,0.9998638463950744
1.001804336056415e-08,0,1.001804336056415e-08,0.8195663943585192,1.001804336056415e-08,0.999898795185527
1.002908392769067e-08,0,1.002908392769067e-08,0.7091607230932739,1.002908392769067e-08,0.9998218578140998
1.004672457724738e-08,0,1.004672457724738e-08,0.5327542275262573,1.004672457724738e-08,0.9999911360014232
1.005304205564018e-08,0,1.005304205564018e-08,0.4695794435982362,1.005304205564018e-08,1.000808172524098
1.005896994205779e-08,0,1.005896994205779e-08,0.4103005794220832,1.005896994205779e-08,1.002700015690822
1.006615842645244e-08,0,1.006615842645244e-08,0.338415735475643,1.006615842645244e-08,1.007321702642833
1.007215126266813e-08,0,1.007215126266813e-08,0.2784873733187534,1.007215126266813e-08,1.014268896348024
1.007915676222804e-08,0,1.007915676222804e-08,0.2084323777196048,1.007915676222804e-08,1.039401049966118
1.008352411691285e-08,0,1.008352411691285e-08,0.1647588308714694,1.008352411691285e-08,1.070036932341049
1.008535045257654e-08,0,1.008535045257654e-08,0.1464954742346178,1.008535045257654e-08,1.072183363188136
1.008692456034353e-08,0,1.008692456034353e-08,0.1307543965647355,1.008692456034353e-08,1.049093125165057
1.008867738960297e-08,0,1.008867738960297e-08,0.1132261039702612,1.008867738960297e-08,0.9827466458344609
1.009046908156593e-08,0,1.009046908156593e-08,0.09530918434066415,1.009046908156593e-08,0.8684417715736881
1.009299069407501e-08,0,1.009299069407501e-08,0.07009305924994724,1.009299069407501e-08,0.6464009867598264
1.00950872693124e-08,0,1.00950872693124e-08,0.04912730687602607,1.00950872693124e-08,0.4326453229725467
1.00969359331568e-08,0,1.00969359331568e-08,0.0306406684320194,1.00969359331568e-08,0.2500426171651265
1.009857048797602e-08,0,1.009857048797602e-08,0.01429512023982427,1.009857048797602e-08,0.1243214601995403
1.009928524398801e-08,0,1.009928524398801e-08,0.007147560119920127,1.009928524398801e-08,0.08887528332375419
1.01e-08,0,1.01e-08,1.587618925213974e-14,1.01e-08,0.06431956850897119
1.010002233612537e-08,0,1.010002233612537e-08,0,1.010002233612537e-08,0.06370751824233649
1.010006700837612e-08,0,1.010006700837612e-08,0,1.010006700837612e-08,0.06250018750999371
1.010015635287762e-08,0,1.010015635287762e-08,0,1.010015635287762e-08,0.06016235154701784
1.010020102512837e-08,0,1.010020102512837e-08,0,1.010020102512837e-08,0.05902861354371691
1.010029036962987e-08,0,1.010029036962987e-08,0,1.010029036962987e-08,0.0568314518582144
1.010046905863287e-08,0,1.010046905863287e-08,0,1.010046905863287e-08,0.0527001474886234
1.010082643663887e-08,0,1.010082643663887e-08,0,1.010082643663887e-08,0.04538064297936406
1.010154119265088e-08,0,1.010154119265088e-08,0,1.010154119265088e-08,0.0338157101753474
1.010297070467488e-08,0,1.010297070467488e-08,0,1.010297070467488e-08,0.01908683758914783
1.010468889869125e-08,0,1.010468889869125e-08,0,1.010468889869125e-08,0.01019159996359091
1.010676505375377e-08,0,1.010676505375377e-08,0,1.010676505375377e-08,0.005364693118782409
1.01092502895734e-08,0,1.01092502895734e-08,0,1.01092502895734e-08,0.00295502195183316
1.011253984240347e-08,0,1.011253984240347e-08,0,1.011253984240347e-08,0.001569489153396314
1.011718242689373e-08,0,1.011718242689373e-08,0,1.011718242689373e-08,0.0007195294376896601
1.012356630001176e-08,0,1.012356630001176e-08,0,1.012356630001176e-08,0.0002309819108295857
1.013132852029865e-08,0,1.013132852029865e-08,0,1.013132852029865e-08,5.523419790512364e-05
1.014142846120437e-08,0,1.014142846120437e-08,0,1.014142846120437e-08,5.997572684072973e-06
1.015557026810042e-08,0,1.015557026810042e-08,0,1.015557026810042e-08,-3.122084838088935e-07
1.017849792406983e-08,0,1.017849792406983e-08,0,1.017849792406983e-08,1.897592931275085e-07
1.022261540818785e-08,0,1.022261540818785e-08,0,1.022261540818785e-08,-5.187895015968298e-08
1.031085037642389e-08,0,1.031085037642389e-08,0,1.031085037642389e-08,1.511252372328766e-07
1.048732031289596e-08,0,1.048732031289596e-08,0,1.048732031289596e-08,-4.19300715028686e-08
1.08402601858401e-08,0,1.08402601858401e-08,0,1.08402601858401e-08,1.4768111580926e-07
1.154613993172838e-08,0,1.154613993172838e-08,0,1.154613993172838e-08,-4.052647647818284e-08
1.274613993172838e-08,0,1.274613993172838e-08,0,1.274613993172838e-08,1.470176420181234e-07
1.394613993172838e-08,0,1.394613993172838e-08,0,1.394613993172838e-08,-4.006938559962132e-08
1.5e-08,0,1.5e-08,0,1.5e-08,1.465570308466618e-07
1.5000390625e-08,0.002604166666672377,1.5000390625e-08,0.003906249999992022,1.5000390625e-08,0.0002923217516975055
1.5001171875e-08,0.00781250000001713,1.5001171875e-08,0.01171875000000915,1.5001171875e-08,0.0007434521410280431
1.5002734375e-08,0.01822916666670664,1.5002734375e-08,0.02734375000004341,1.5002734375e-08,0.001113487355125081
1.500585937500001e-08,0.03906250000008565,1.500585937500001e-08,0.05859375000011193,1.500585937500001e-08,0.001021723495644512
1.5010787775494e-08,0.07191850329331921,1.5010787775494e-08,0.1078777549399623,1.5010787775494e-08,0.000458348255964287
1.501721022285671e-08,0.1147348190447633,1.501721022285671e-08,0.1721022285671284,1.501721022285671e-08,0.0002380886249176207
1.502598308794615e-08,0.1732205863076756,1.502598308794615e-08,0.2598308794614969,1.502598308794615e-08,0.0001928857382968183
1.503774788886151e-08,0.2516525924100947,1.503774788886151e-08,0.3774788886151256,1.503774788886151e-08,0.0002914122586442121
1.505532368074823e-08,0.3688245383215332,1.505532368074823e-08,0.5532368074822832,1.505532368074823e-08,-0.0004294615780857357
1.506209764955564e-08,0.4139843303709438,1.506209764955564e-08,0.6209764955563991,1.506209764955564e-08,-0.002555071835537462
1.506783665987823e-08,0.4522443991881998,1.506783665987823e-08,0.6783665987822831,1.506783665987823e-08,-0.006437197279807625
1.507398594027101e-08,0.4932396018067236,1.507398594027101e-08,0.7398594027100689,1.507398594027101e-08,-0.01480020385478263
1.507982646310586e-08,0.5321764207057512,1.507982646310586e-08,0.7982646310586102,1.507982646310586e-08,-0.0363117552899179
1.508597681865651e-08,0.5731787910433797,1.508597681865651e-08,0.8597681865650528,1.508597681865651e-08,-0.04596606638228319
1.508756645074284e-08,0.5837763382856006,1.508756645074284e-08,0.8756645074283842,1.508756645074284e-08,-0.01729019739455623
1.508895781736019e-08,0.5930521157345769,1.508895781736019e-08,0.8895781736018488,1.508895781736019e-08,0.04904684450813437
1.509042769706122e-08,0.6028513137414955,1.509042769706122e-08,0.9042769706122266,1.509042769706122e-08,0.1671509426714494
1.509240819281222e-08,0.6160546187481568,1.509240819281222e-08,0.9240819281222186,1.509240819281222e-08,0.3877051258245355
1.509413325049739e-08,0.6275550033159201,1.509413325049739e-08,0.9413325049738636,1.509413325049739e-08,0.6137520676624625
1.50956693664869e-08,0.6377957765793558,1.50956693664869e-08,0.9566936648690172,1.50956693664869e-08,0.8057079317257032
1.509690424580543e-08,0.6460283053695391,1.509690424580543e-08,0.9690424580542921,1.509690424580543e-08,0.9069698738163714
1.50978512560591e-08,0.6523417070606423,1.50978512560591e-08,0.9785125605909469,1.50978512560591e-08,0.9410931304443724
1.509904976754265e-08,0.6603317836177073,1.509904976754265e-08,0.9904976754265442,1.509904976754265e-08,0.9628751501289327
